# vsim -vopt work.apb_slave_top -voptargs="+acc=npr" -assertdebug -l simulation.log -coverage -c -do "coverage save -onexit -assert -directive -cvg -codeAll coverage.ucdb; run -all; exit" 
# Start time: 10:02:46 on Dec 05,2025
# ** Note: (vsim-3812) Design is being optimized...
# //  Questa Sim
# //  Version 10.6c linux Jul 25 2017
# //
# //  Copyright 1991-2017 Mentor Graphics Corporation
# //  All Rights Reserved.
# //
# //  QuestaSim and its associated documentation contain trade
# //  secrets and commercial or financial information that are the property of
# //  Mentor Graphics Corporation and are privileged, confidential,
# //  and exempt from disclosure under the Freedom of Information Act,
# //  5 U.S.C. Section 552. Furthermore, this information
# //  is prohibited from disclosure under the Trade Secrets Act,
# //  18 U.S.C. Section 1905.
# //
# Loading sv_std.std
# Loading work.apb_slave_interface(fast)
# Loading mtiUvm.uvm_pkg
# Loading work.apb_slave_package(fast)
# Loading work.testbench_sv_unit(fast)
# Loading work.apb_slave_top(fast)
# Loading work.apb_slave_interface(fast)
# Loading work.apb_slave(fast)
# Loading mtiUvm.questa_uvm_pkg(fast)
# ** Warning: (vsim-3015) testbench.sv(29): [PCDPC] - Port size (8) does not match connection size (9) for port 'PADDR'. The port definition is at: design.sv(16).
#    Time: 0 ns  Iteration: 0  Instance: /apb_slave_top/DUT File: design.sv
# Loading /tools/mentor/questasim_10.6c/questasim/uvm-1.1d/linux/uvm_dpi.so
# coverage save -onexit -assert -directive -cvg -codeAll coverage.ucdb
#  run -all
# ----------------------------------------------------------------
# UVM-1.1d
# (C) 2007-2013 Mentor Graphics Corporation
# (C) 2007-2013 Cadence Design Systems, Inc.
# (C) 2006-2013 Synopsys, Inc.
# (C) 2011-2013 Cypress Semiconductor Corp.
# ----------------------------------------------------------------
# 
#   ***********       IMPORTANT RELEASE NOTES         ************
# 
#   You are using a version of the UVM library that has been compiled
#   with `UVM_NO_DEPRECATED undefined.
#   See http://www.eda.org/svdb/view.php?id=3313 for more details.
# 
#   You are using a version of the UVM library that has been compiled
#   with `UVM_OBJECT_MUST_HAVE_CONSTRUCTOR undefined.
#   See http://www.eda.org/svdb/view.php?id=3770 for more details.
# 
#       (Specify +UVM_NO_RELNOTES to turn off this notice)
# 
# UVM_INFO verilog_src/questa_uvm_pkg-1.2/src/questa_uvm_pkg.sv(215) @ 0: reporter [Questa UVM] QUESTA_UVM-1.2.3
# UVM_INFO verilog_src/questa_uvm_pkg-1.2/src/questa_uvm_pkg.sv(217) @ 0: reporter [Questa UVM]  questa_uvm::init(+struct)
# UVM_INFO @ 0: reporter [RNTST] Running test apb_slave_regression_test...
# UVM_INFO @ 0: reporter [UVMTOP] UVM testbench topology:
# -----------------------------------------------------------------
# Name                       Type                       Size  Value
# -----------------------------------------------------------------
# uvm_test_top               apb_slave_regression_test  -     @471 
#   env                      apb_slave_environment      -     @478 
#     act_agent              apb_slave_active_agent     -     @489 
#       drv                  apb_slave_driver           -     @663 
#         rsp_port           uvm_analysis_port          -     @678 
#         seq_item_port      uvm_seq_item_pull_port     -     @670 
#       mon_active           apb_slave_active_monitor   -     @686 
#         ap_active          uvm_analysis_port          -     @693 
#       seqr                 apb_slave_sequencer        -     @554 
#         rsp_export         uvm_analysis_export        -     @561 
#         seq_item_export    uvm_seq_item_pull_imp      -     @655 
#         arbitration_queue  array                      0     -    
#         lock_queue         array                      0     -    
#         num_last_reqs      integral                   32    'd1  
#         num_last_rsps      integral                   32    'd1  
#     cov                    apb_slave_subscriber       -     @526 
#       active_port          uvm_analysis_imp_active    -     @533 
#       passive_port         uvm_analysis_imp_passive   -     @541 
#     pass_agent             apb_slave_passive_agent    -     @496 
#       mon_passive          apb_slave_passive_monitor  -     @709 
#         ap_passive         uvm_analysis_port          -     @716 
#     scb                    apb_slave_scoreboard       -     @503 
#       active_mon_port      uvm_analysis_imp_act_mon   -     @510 
#       passive_mon_port     uvm_analysis_imp_pass_mon  -     @518 
# -----------------------------------------------------------------
# 
# UVM_INFO apb_slave_sequence.sv(211) @ 0: uvm_test_top.env.act_agent.seqr@@reg_seq [REGSEQ] Starting Full Regression
# UVM_INFO apb_slave_driver.sv(38) @ 5: uvm_test_top.env.act_agent.drv [DRV_SETUP] SETUP :ADDR=0x0 WRITE=0 WDATA=0x0 STRB=0x0
# UVM_INFO apb_slave_driver.sv(46) @ 15: uvm_test_top.env.act_agent.drv [DRV_ACCESS] ACCESS : ADDR=0x0 WRITE=0
# UVM_INFO apb_slave_active_monitor.sv(43) @ 35: uvm_test_top.env.act_agent.mon_active [ACT_MON_SETUP] SETUP : ADDR=0x0 WRITE=0 STRB=0x0 WDATA=0x0
# UVM_INFO apb_slave_scoreboard.sv(65) @ 35: uvm_test_top.env.scb [SCBD] RESET PASS: RESET=0 ACT_RDATA=0x0 EXP_RDATA=0x0 PSLVERR=0
# UVM_INFO apb_slave_driver.sv(38) @ 75: uvm_test_top.env.act_agent.drv [DRV_SETUP] SETUP :ADDR=0x49 WRITE=1 WDATA=0xb7cc99a4 STRB=0xf
# UVM_INFO apb_slave_driver.sv(46) @ 85: uvm_test_top.env.act_agent.drv [DRV_ACCESS] ACCESS : ADDR=0x49 WRITE=1
# UVM_INFO apb_slave_active_monitor.sv(43) @ 105: uvm_test_top.env.act_agent.mon_active [ACT_MON_SETUP] SETUP : ADDR=0x49 WRITE=1 STRB=0xf WDATA=0xb7cc99a4
# UVM_INFO apb_slave_scoreboard.sv(112) @ 105: uvm_test_top.env.scb [SCBD] WRITE OK: ADDR=0x49 WDATA=0xb7cc99a4 STRB=0xf NEW_MEM=0xb7cc99a4
# UVM_INFO apb_slave_sequence.sv(42) @ 135: uvm_test_top.env.act_agent.seqr@@reg_seq.reset_seq [apb_reset_sequence] APB Reset Sequence Completed
# UVM_INFO apb_slave_driver.sv(38) @ 145: uvm_test_top.env.act_agent.drv [DRV_SETUP] SETUP :ADDR=0x4d WRITE=1 WDATA=0x86916cba STRB=0xf
# UVM_INFO apb_slave_driver.sv(46) @ 155: uvm_test_top.env.act_agent.drv [DRV_ACCESS] ACCESS : ADDR=0x4d WRITE=1
# UVM_INFO apb_slave_active_monitor.sv(43) @ 175: uvm_test_top.env.act_agent.mon_active [ACT_MON_SETUP] SETUP : ADDR=0x4d WRITE=1 STRB=0xf WDATA=0x86916cba
# UVM_INFO apb_slave_scoreboard.sv(112) @ 175: uvm_test_top.env.scb [SCBD] WRITE OK: ADDR=0x4d WDATA=0x86916cba STRB=0xf NEW_MEM=0x86916cba
# UVM_INFO apb_slave_driver.sv(38) @ 215: uvm_test_top.env.act_agent.drv [DRV_SETUP] SETUP :ADDR=0x4d WRITE=0 WDATA=0x86916cba STRB=0xb
# UVM_INFO apb_slave_driver.sv(46) @ 225: uvm_test_top.env.act_agent.drv [DRV_ACCESS] ACCESS : ADDR=0x4d WRITE=0
# UVM_INFO apb_slave_active_monitor.sv(43) @ 245: uvm_test_top.env.act_agent.mon_active [ACT_MON_SETUP] SETUP : ADDR=0x4d WRITE=0 STRB=0xb WDATA=0x0
# UVM_INFO apb_slave_scoreboard.sv(148) @ 245: uvm_test_top.env.scb [SCBD] READ PASS: ADDR=0x4d ACT=0x86916cba EXP=0x86916cba
# UVM_INFO apb_slave_driver.sv(38) @ 285: uvm_test_top.env.act_agent.drv [DRV_SETUP] SETUP :ADDR=0x63 WRITE=1 WDATA=0xcd935a3b STRB=0xf
# UVM_INFO apb_slave_driver.sv(46) @ 295: uvm_test_top.env.act_agent.drv [DRV_ACCESS] ACCESS : ADDR=0x63 WRITE=1
# UVM_INFO apb_slave_active_monitor.sv(43) @ 315: uvm_test_top.env.act_agent.mon_active [ACT_MON_SETUP] SETUP : ADDR=0x63 WRITE=1 STRB=0xf WDATA=0xcd935a3b
# UVM_INFO apb_slave_scoreboard.sv(112) @ 315: uvm_test_top.env.scb [SCBD] WRITE OK: ADDR=0x63 WDATA=0xcd935a3b STRB=0xf NEW_MEM=0xcd935a3b
# UVM_INFO apb_slave_driver.sv(38) @ 355: uvm_test_top.env.act_agent.drv [DRV_SETUP] SETUP :ADDR=0x63 WRITE=0 WDATA=0xcd935a3b STRB=0x2
# UVM_INFO apb_slave_driver.sv(46) @ 365: uvm_test_top.env.act_agent.drv [DRV_ACCESS] ACCESS : ADDR=0x63 WRITE=0
# UVM_INFO apb_slave_active_monitor.sv(43) @ 385: uvm_test_top.env.act_agent.mon_active [ACT_MON_SETUP] SETUP : ADDR=0x63 WRITE=0 STRB=0x2 WDATA=0x0
# UVM_INFO apb_slave_scoreboard.sv(148) @ 385: uvm_test_top.env.scb [SCBD] READ PASS: ADDR=0x63 ACT=0xcd935a3b EXP=0xcd935a3b
# UVM_INFO apb_slave_driver.sv(38) @ 425: uvm_test_top.env.act_agent.drv [DRV_SETUP] SETUP :ADDR=0x75 WRITE=1 WDATA=0xc1ee5c0c STRB=0xf
# UVM_INFO apb_slave_driver.sv(46) @ 435: uvm_test_top.env.act_agent.drv [DRV_ACCESS] ACCESS : ADDR=0x75 WRITE=1
# UVM_INFO apb_slave_active_monitor.sv(43) @ 455: uvm_test_top.env.act_agent.mon_active [ACT_MON_SETUP] SETUP : ADDR=0x75 WRITE=1 STRB=0xf WDATA=0xc1ee5c0c
# UVM_INFO apb_slave_scoreboard.sv(112) @ 455: uvm_test_top.env.scb [SCBD] WRITE OK: ADDR=0x75 WDATA=0xc1ee5c0c STRB=0xf NEW_MEM=0xc1ee5c0c
# UVM_INFO apb_slave_driver.sv(38) @ 495: uvm_test_top.env.act_agent.drv [DRV_SETUP] SETUP :ADDR=0x75 WRITE=0 WDATA=0xc1ee5c0c STRB=0xe
# UVM_INFO apb_slave_driver.sv(46) @ 505: uvm_test_top.env.act_agent.drv [DRV_ACCESS] ACCESS : ADDR=0x75 WRITE=0
# UVM_INFO apb_slave_active_monitor.sv(43) @ 525: uvm_test_top.env.act_agent.mon_active [ACT_MON_SETUP] SETUP : ADDR=0x75 WRITE=0 STRB=0xe WDATA=0x0
# UVM_INFO apb_slave_scoreboard.sv(148) @ 525: uvm_test_top.env.scb [SCBD] READ PASS: ADDR=0x75 ACT=0xc1ee5c0c EXP=0xc1ee5c0c
# UVM_INFO apb_slave_driver.sv(38) @ 565: uvm_test_top.env.act_agent.drv [DRV_SETUP] SETUP :ADDR=0x17 WRITE=1 WDATA=0x6fd6e55f STRB=0xf
# UVM_INFO apb_slave_driver.sv(46) @ 575: uvm_test_top.env.act_agent.drv [DRV_ACCESS] ACCESS : ADDR=0x17 WRITE=1
# UVM_INFO apb_slave_active_monitor.sv(43) @ 595: uvm_test_top.env.act_agent.mon_active [ACT_MON_SETUP] SETUP : ADDR=0x17 WRITE=1 STRB=0xf WDATA=0x6fd6e55f
# UVM_INFO apb_slave_scoreboard.sv(112) @ 595: uvm_test_top.env.scb [SCBD] WRITE OK: ADDR=0x17 WDATA=0x6fd6e55f STRB=0xf NEW_MEM=0x6fd6e55f
# UVM_INFO apb_slave_driver.sv(38) @ 635: uvm_test_top.env.act_agent.drv [DRV_SETUP] SETUP :ADDR=0x17 WRITE=0 WDATA=0x6fd6e55f STRB=0x5
# UVM_INFO apb_slave_driver.sv(46) @ 645: uvm_test_top.env.act_agent.drv [DRV_ACCESS] ACCESS : ADDR=0x17 WRITE=0
# UVM_INFO apb_slave_active_monitor.sv(43) @ 665: uvm_test_top.env.act_agent.mon_active [ACT_MON_SETUP] SETUP : ADDR=0x17 WRITE=0 STRB=0x5 WDATA=0x0
# UVM_INFO apb_slave_scoreboard.sv(148) @ 665: uvm_test_top.env.scb [SCBD] READ PASS: ADDR=0x17 ACT=0x6fd6e55f EXP=0x6fd6e55f
# UVM_INFO apb_slave_driver.sv(38) @ 705: uvm_test_top.env.act_agent.drv [DRV_SETUP] SETUP :ADDR=0x18 WRITE=1 WDATA=0x75fdd75e STRB=0xf
# UVM_INFO apb_slave_driver.sv(46) @ 715: uvm_test_top.env.act_agent.drv [DRV_ACCESS] ACCESS : ADDR=0x18 WRITE=1
# UVM_INFO apb_slave_active_monitor.sv(43) @ 735: uvm_test_top.env.act_agent.mon_active [ACT_MON_SETUP] SETUP : ADDR=0x18 WRITE=1 STRB=0xf WDATA=0x75fdd75e
# UVM_INFO apb_slave_scoreboard.sv(112) @ 735: uvm_test_top.env.scb [SCBD] WRITE OK: ADDR=0x18 WDATA=0x75fdd75e STRB=0xf NEW_MEM=0x75fdd75e
# UVM_INFO apb_slave_driver.sv(38) @ 775: uvm_test_top.env.act_agent.drv [DRV_SETUP] SETUP :ADDR=0x18 WRITE=0 WDATA=0x75fdd75e STRB=0xc
# UVM_INFO apb_slave_driver.sv(46) @ 785: uvm_test_top.env.act_agent.drv [DRV_ACCESS] ACCESS : ADDR=0x18 WRITE=0
# UVM_INFO apb_slave_active_monitor.sv(43) @ 805: uvm_test_top.env.act_agent.mon_active [ACT_MON_SETUP] SETUP : ADDR=0x18 WRITE=0 STRB=0xc WDATA=0x0
# UVM_INFO apb_slave_scoreboard.sv(148) @ 805: uvm_test_top.env.scb [SCBD] READ PASS: ADDR=0x18 ACT=0x75fdd75e EXP=0x75fdd75e
# UVM_INFO apb_slave_driver.sv(38) @ 845: uvm_test_top.env.act_agent.drv [DRV_SETUP] SETUP :ADDR=0x83 WRITE=1 WDATA=0x33942182 STRB=0xf
# UVM_INFO apb_slave_driver.sv(46) @ 855: uvm_test_top.env.act_agent.drv [DRV_ACCESS] ACCESS : ADDR=0x83 WRITE=1
# UVM_INFO apb_slave_active_monitor.sv(43) @ 875: uvm_test_top.env.act_agent.mon_active [ACT_MON_SETUP] SETUP : ADDR=0x83 WRITE=1 STRB=0xf WDATA=0x33942182
# UVM_INFO apb_slave_scoreboard.sv(112) @ 875: uvm_test_top.env.scb [SCBD] WRITE OK: ADDR=0x83 WDATA=0x33942182 STRB=0xf NEW_MEM=0x33942182
# UVM_INFO apb_slave_driver.sv(38) @ 915: uvm_test_top.env.act_agent.drv [DRV_SETUP] SETUP :ADDR=0x83 WRITE=0 WDATA=0x33942182 STRB=0xa
# UVM_INFO apb_slave_driver.sv(46) @ 925: uvm_test_top.env.act_agent.drv [DRV_ACCESS] ACCESS : ADDR=0x83 WRITE=0
# UVM_INFO apb_slave_active_monitor.sv(43) @ 945: uvm_test_top.env.act_agent.mon_active [ACT_MON_SETUP] SETUP : ADDR=0x83 WRITE=0 STRB=0xa WDATA=0x0
# UVM_INFO apb_slave_scoreboard.sv(148) @ 945: uvm_test_top.env.scb [SCBD] READ PASS: ADDR=0x83 ACT=0x33942182 EXP=0x33942182
# UVM_INFO apb_slave_driver.sv(38) @ 985: uvm_test_top.env.act_agent.drv [DRV_SETUP] SETUP :ADDR=0x7c WRITE=1 WDATA=0x930a74ad STRB=0xf
# UVM_INFO apb_slave_driver.sv(46) @ 995: uvm_test_top.env.act_agent.drv [DRV_ACCESS] ACCESS : ADDR=0x7c WRITE=1
# UVM_INFO apb_slave_active_monitor.sv(43) @ 1015: uvm_test_top.env.act_agent.mon_active [ACT_MON_SETUP] SETUP : ADDR=0x7c WRITE=1 STRB=0xf WDATA=0x930a74ad
# UVM_INFO apb_slave_scoreboard.sv(112) @ 1015: uvm_test_top.env.scb [SCBD] WRITE OK: ADDR=0x7c WDATA=0x930a74ad STRB=0xf NEW_MEM=0x930a74ad
# UVM_INFO apb_slave_driver.sv(38) @ 1055: uvm_test_top.env.act_agent.drv [DRV_SETUP] SETUP :ADDR=0x7c WRITE=0 WDATA=0x930a74ad STRB=0xe
# UVM_INFO apb_slave_driver.sv(46) @ 1065: uvm_test_top.env.act_agent.drv [DRV_ACCESS] ACCESS : ADDR=0x7c WRITE=0
# UVM_INFO apb_slave_active_monitor.sv(43) @ 1085: uvm_test_top.env.act_agent.mon_active [ACT_MON_SETUP] SETUP : ADDR=0x7c WRITE=0 STRB=0xe WDATA=0x0
# UVM_INFO apb_slave_scoreboard.sv(148) @ 1085: uvm_test_top.env.scb [SCBD] READ PASS: ADDR=0x7c ACT=0x930a74ad EXP=0x930a74ad
# UVM_INFO apb_slave_driver.sv(38) @ 1125: uvm_test_top.env.act_agent.drv [DRV_SETUP] SETUP :ADDR=0x84 WRITE=1 WDATA=0x9b02f5b5 STRB=0xf
# UVM_INFO apb_slave_driver.sv(46) @ 1135: uvm_test_top.env.act_agent.drv [DRV_ACCESS] ACCESS : ADDR=0x84 WRITE=1
# UVM_INFO apb_slave_active_monitor.sv(43) @ 1155: uvm_test_top.env.act_agent.mon_active [ACT_MON_SETUP] SETUP : ADDR=0x84 WRITE=1 STRB=0xf WDATA=0x9b02f5b5
# UVM_INFO apb_slave_scoreboard.sv(112) @ 1155: uvm_test_top.env.scb [SCBD] WRITE OK: ADDR=0x84 WDATA=0x9b02f5b5 STRB=0xf NEW_MEM=0x9b02f5b5
# UVM_INFO apb_slave_driver.sv(38) @ 1195: uvm_test_top.env.act_agent.drv [DRV_SETUP] SETUP :ADDR=0x84 WRITE=0 WDATA=0x9b02f5b5 STRB=0x4
# UVM_INFO apb_slave_driver.sv(46) @ 1205: uvm_test_top.env.act_agent.drv [DRV_ACCESS] ACCESS : ADDR=0x84 WRITE=0
# UVM_INFO apb_slave_active_monitor.sv(43) @ 1225: uvm_test_top.env.act_agent.mon_active [ACT_MON_SETUP] SETUP : ADDR=0x84 WRITE=0 STRB=0x4 WDATA=0x0
# UVM_INFO apb_slave_scoreboard.sv(148) @ 1225: uvm_test_top.env.scb [SCBD] READ PASS: ADDR=0x84 ACT=0x9b02f5b5 EXP=0x9b02f5b5
# UVM_INFO apb_slave_driver.sv(38) @ 1265: uvm_test_top.env.act_agent.drv [DRV_SETUP] SETUP :ADDR=0x52 WRITE=1 WDATA=0x91132c18 STRB=0xf
# UVM_INFO apb_slave_driver.sv(46) @ 1275: uvm_test_top.env.act_agent.drv [DRV_ACCESS] ACCESS : ADDR=0x52 WRITE=1
# UVM_INFO apb_slave_active_monitor.sv(43) @ 1295: uvm_test_top.env.act_agent.mon_active [ACT_MON_SETUP] SETUP : ADDR=0x52 WRITE=1 STRB=0xf WDATA=0x91132c18
# UVM_INFO apb_slave_scoreboard.sv(112) @ 1295: uvm_test_top.env.scb [SCBD] WRITE OK: ADDR=0x52 WDATA=0x91132c18 STRB=0xf NEW_MEM=0x91132c18
# UVM_INFO apb_slave_driver.sv(38) @ 1335: uvm_test_top.env.act_agent.drv [DRV_SETUP] SETUP :ADDR=0x52 WRITE=0 WDATA=0x91132c18 STRB=0xe
# UVM_INFO apb_slave_driver.sv(46) @ 1345: uvm_test_top.env.act_agent.drv [DRV_ACCESS] ACCESS : ADDR=0x52 WRITE=0
# UVM_INFO apb_slave_active_monitor.sv(43) @ 1365: uvm_test_top.env.act_agent.mon_active [ACT_MON_SETUP] SETUP : ADDR=0x52 WRITE=0 STRB=0xe WDATA=0x0
# UVM_INFO apb_slave_scoreboard.sv(148) @ 1365: uvm_test_top.env.scb [SCBD] READ PASS: ADDR=0x52 ACT=0x91132c18 EXP=0x91132c18
# UVM_INFO apb_slave_driver.sv(38) @ 1405: uvm_test_top.env.act_agent.drv [DRV_SETUP] SETUP :ADDR=0xf0 WRITE=1 WDATA=0x3aa86db3 STRB=0xf
# UVM_INFO apb_slave_driver.sv(46) @ 1415: uvm_test_top.env.act_agent.drv [DRV_ACCESS] ACCESS : ADDR=0xf0 WRITE=1
# UVM_INFO apb_slave_active_monitor.sv(43) @ 1435: uvm_test_top.env.act_agent.mon_active [ACT_MON_SETUP] SETUP : ADDR=0xf0 WRITE=1 STRB=0xf WDATA=0x3aa86db3
# UVM_INFO apb_slave_scoreboard.sv(112) @ 1435: uvm_test_top.env.scb [SCBD] WRITE OK: ADDR=0xf0 WDATA=0x3aa86db3 STRB=0xf NEW_MEM=0x3aa86db3
# UVM_INFO apb_slave_driver.sv(38) @ 1475: uvm_test_top.env.act_agent.drv [DRV_SETUP] SETUP :ADDR=0xf0 WRITE=0 WDATA=0x3aa86db3 STRB=0x8
# UVM_INFO apb_slave_driver.sv(46) @ 1485: uvm_test_top.env.act_agent.drv [DRV_ACCESS] ACCESS : ADDR=0xf0 WRITE=0
# UVM_INFO apb_slave_active_monitor.sv(43) @ 1505: uvm_test_top.env.act_agent.mon_active [ACT_MON_SETUP] SETUP : ADDR=0xf0 WRITE=0 STRB=0x8 WDATA=0x0
# UVM_INFO apb_slave_scoreboard.sv(148) @ 1505: uvm_test_top.env.scb [SCBD] READ PASS: ADDR=0xf0 ACT=0x3aa86db3 EXP=0x3aa86db3
# UVM_INFO apb_slave_driver.sv(38) @ 1545: uvm_test_top.env.act_agent.drv [DRV_SETUP] SETUP :ADDR=0x97 WRITE=1 WDATA=0x94993c08 STRB=0x4
# UVM_INFO apb_slave_driver.sv(46) @ 1555: uvm_test_top.env.act_agent.drv [DRV_ACCESS] ACCESS : ADDR=0x97 WRITE=1
# UVM_INFO apb_slave_active_monitor.sv(43) @ 1575: uvm_test_top.env.act_agent.mon_active [ACT_MON_SETUP] SETUP : ADDR=0x97 WRITE=1 STRB=0x4 WDATA=0x94993c08
# UVM_INFO apb_slave_scoreboard.sv(112) @ 1575: uvm_test_top.env.scb [SCBD] WRITE OK: ADDR=0x97 WDATA=0x94993c08 STRB=0x4 NEW_MEM=0x990000
# UVM_INFO apb_slave_driver.sv(38) @ 1615: uvm_test_top.env.act_agent.drv [DRV_SETUP] SETUP :ADDR=0x97 WRITE=0 WDATA=0xaa0f7c81 STRB=0xe
# UVM_INFO apb_slave_driver.sv(46) @ 1625: uvm_test_top.env.act_agent.drv [DRV_ACCESS] ACCESS : ADDR=0x97 WRITE=0
# UVM_INFO apb_slave_active_monitor.sv(43) @ 1645: uvm_test_top.env.act_agent.mon_active [ACT_MON_SETUP] SETUP : ADDR=0x97 WRITE=0 STRB=0xe WDATA=0x0
# UVM_INFO apb_slave_scoreboard.sv(148) @ 1645: uvm_test_top.env.scb [SCBD] READ PASS: ADDR=0x97 ACT=0x990000 EXP=0x990000
# UVM_INFO apb_slave_driver.sv(38) @ 1685: uvm_test_top.env.act_agent.drv [DRV_SETUP] SETUP :ADDR=0x6f WRITE=1 WDATA=0xdcd511d7 STRB=0x8
# UVM_INFO apb_slave_driver.sv(46) @ 1695: uvm_test_top.env.act_agent.drv [DRV_ACCESS] ACCESS : ADDR=0x6f WRITE=1
# UVM_INFO apb_slave_active_monitor.sv(43) @ 1715: uvm_test_top.env.act_agent.mon_active [ACT_MON_SETUP] SETUP : ADDR=0x6f WRITE=1 STRB=0x8 WDATA=0xdcd511d7
# UVM_INFO apb_slave_scoreboard.sv(112) @ 1715: uvm_test_top.env.scb [SCBD] WRITE OK: ADDR=0x6f WDATA=0xdcd511d7 STRB=0x8 NEW_MEM=0xdc000000
# UVM_INFO apb_slave_driver.sv(38) @ 1755: uvm_test_top.env.act_agent.drv [DRV_SETUP] SETUP :ADDR=0x6f WRITE=0 WDATA=0xc2c24456 STRB=0x5
# UVM_INFO apb_slave_driver.sv(46) @ 1765: uvm_test_top.env.act_agent.drv [DRV_ACCESS] ACCESS : ADDR=0x6f WRITE=0
# UVM_INFO apb_slave_active_monitor.sv(43) @ 1785: uvm_test_top.env.act_agent.mon_active [ACT_MON_SETUP] SETUP : ADDR=0x6f WRITE=0 STRB=0x5 WDATA=0x0
# UVM_INFO apb_slave_scoreboard.sv(148) @ 1785: uvm_test_top.env.scb [SCBD] READ PASS: ADDR=0x6f ACT=0xdc000000 EXP=0xdc000000
# UVM_INFO apb_slave_driver.sv(38) @ 1825: uvm_test_top.env.act_agent.drv [DRV_SETUP] SETUP :ADDR=0xb3 WRITE=1 WDATA=0xd99b8916 STRB=0x1
# UVM_INFO apb_slave_driver.sv(46) @ 1835: uvm_test_top.env.act_agent.drv [DRV_ACCESS] ACCESS : ADDR=0xb3 WRITE=1
# UVM_INFO apb_slave_active_monitor.sv(43) @ 1855: uvm_test_top.env.act_agent.mon_active [ACT_MON_SETUP] SETUP : ADDR=0xb3 WRITE=1 STRB=0x1 WDATA=0xd99b8916
# UVM_INFO apb_slave_scoreboard.sv(112) @ 1855: uvm_test_top.env.scb [SCBD] WRITE OK: ADDR=0xb3 WDATA=0xd99b8916 STRB=0x1 NEW_MEM=0x16
# UVM_INFO apb_slave_driver.sv(38) @ 1895: uvm_test_top.env.act_agent.drv [DRV_SETUP] SETUP :ADDR=0xb3 WRITE=0 WDATA=0x3c505972 STRB=0xa
# UVM_INFO apb_slave_driver.sv(46) @ 1905: uvm_test_top.env.act_agent.drv [DRV_ACCESS] ACCESS : ADDR=0xb3 WRITE=0
# UVM_INFO apb_slave_active_monitor.sv(43) @ 1925: uvm_test_top.env.act_agent.mon_active [ACT_MON_SETUP] SETUP : ADDR=0xb3 WRITE=0 STRB=0xa WDATA=0x0
# UVM_INFO apb_slave_scoreboard.sv(148) @ 1925: uvm_test_top.env.scb [SCBD] READ PASS: ADDR=0xb3 ACT=0x16 EXP=0x16
# UVM_INFO apb_slave_driver.sv(38) @ 1965: uvm_test_top.env.act_agent.drv [DRV_SETUP] SETUP :ADDR=0x85 WRITE=1 WDATA=0xcf9c2215 STRB=0x2
# UVM_INFO apb_slave_driver.sv(46) @ 1975: uvm_test_top.env.act_agent.drv [DRV_ACCESS] ACCESS : ADDR=0x85 WRITE=1
# UVM_INFO apb_slave_active_monitor.sv(43) @ 1995: uvm_test_top.env.act_agent.mon_active [ACT_MON_SETUP] SETUP : ADDR=0x85 WRITE=1 STRB=0x2 WDATA=0xcf9c2215
# UVM_INFO apb_slave_scoreboard.sv(112) @ 1995: uvm_test_top.env.scb [SCBD] WRITE OK: ADDR=0x85 WDATA=0xcf9c2215 STRB=0x2 NEW_MEM=0x2200
# UVM_INFO apb_slave_driver.sv(38) @ 2035: uvm_test_top.env.act_agent.drv [DRV_SETUP] SETUP :ADDR=0x85 WRITE=0 WDATA=0xb3825fd3 STRB=0x5
# UVM_INFO apb_slave_driver.sv(46) @ 2045: uvm_test_top.env.act_agent.drv [DRV_ACCESS] ACCESS : ADDR=0x85 WRITE=0
# UVM_INFO apb_slave_active_monitor.sv(43) @ 2065: uvm_test_top.env.act_agent.mon_active [ACT_MON_SETUP] SETUP : ADDR=0x85 WRITE=0 STRB=0x5 WDATA=0x0
# UVM_INFO apb_slave_scoreboard.sv(148) @ 2065: uvm_test_top.env.scb [SCBD] READ PASS: ADDR=0x85 ACT=0x2200 EXP=0x2200
# UVM_INFO apb_slave_driver.sv(38) @ 2105: uvm_test_top.env.act_agent.drv [DRV_SETUP] SETUP :ADDR=0xe9 WRITE=1 WDATA=0x17188b93 STRB=0xc
# UVM_INFO apb_slave_driver.sv(46) @ 2115: uvm_test_top.env.act_agent.drv [DRV_ACCESS] ACCESS : ADDR=0xe9 WRITE=1
# UVM_INFO apb_slave_active_monitor.sv(43) @ 2135: uvm_test_top.env.act_agent.mon_active [ACT_MON_SETUP] SETUP : ADDR=0xe9 WRITE=1 STRB=0xc WDATA=0x17188b93
# UVM_INFO apb_slave_scoreboard.sv(112) @ 2135: uvm_test_top.env.scb [SCBD] WRITE OK: ADDR=0xe9 WDATA=0x17188b93 STRB=0xc NEW_MEM=0x17180000
# UVM_INFO apb_slave_driver.sv(38) @ 2175: uvm_test_top.env.act_agent.drv [DRV_SETUP] SETUP :ADDR=0xe9 WRITE=0 WDATA=0xdd46d73d STRB=0xf
# UVM_INFO apb_slave_driver.sv(46) @ 2185: uvm_test_top.env.act_agent.drv [DRV_ACCESS] ACCESS : ADDR=0xe9 WRITE=0
# UVM_INFO apb_slave_active_monitor.sv(43) @ 2205: uvm_test_top.env.act_agent.mon_active [ACT_MON_SETUP] SETUP : ADDR=0xe9 WRITE=0 STRB=0xf WDATA=0x0
# UVM_INFO apb_slave_scoreboard.sv(148) @ 2205: uvm_test_top.env.scb [SCBD] READ PASS: ADDR=0xe9 ACT=0x17180000 EXP=0x17180000
# UVM_INFO apb_slave_driver.sv(38) @ 2245: uvm_test_top.env.act_agent.drv [DRV_SETUP] SETUP :ADDR=0xb7 WRITE=1 WDATA=0x4afc88e1 STRB=0x8
# UVM_INFO apb_slave_driver.sv(46) @ 2255: uvm_test_top.env.act_agent.drv [DRV_ACCESS] ACCESS : ADDR=0xb7 WRITE=1
# UVM_INFO apb_slave_active_monitor.sv(43) @ 2275: uvm_test_top.env.act_agent.mon_active [ACT_MON_SETUP] SETUP : ADDR=0xb7 WRITE=1 STRB=0x8 WDATA=0x4afc88e1
# UVM_INFO apb_slave_scoreboard.sv(112) @ 2275: uvm_test_top.env.scb [SCBD] WRITE OK: ADDR=0xb7 WDATA=0x4afc88e1 STRB=0x8 NEW_MEM=0x4a000000
# UVM_INFO apb_slave_driver.sv(38) @ 2315: uvm_test_top.env.act_agent.drv [DRV_SETUP] SETUP :ADDR=0xb7 WRITE=0 WDATA=0xd1cb6cd5 STRB=0x5
# UVM_INFO apb_slave_driver.sv(46) @ 2325: uvm_test_top.env.act_agent.drv [DRV_ACCESS] ACCESS : ADDR=0xb7 WRITE=0
# UVM_INFO apb_slave_active_monitor.sv(43) @ 2345: uvm_test_top.env.act_agent.mon_active [ACT_MON_SETUP] SETUP : ADDR=0xb7 WRITE=0 STRB=0x5 WDATA=0x0
# UVM_INFO apb_slave_scoreboard.sv(148) @ 2345: uvm_test_top.env.scb [SCBD] READ PASS: ADDR=0xb7 ACT=0x4a000000 EXP=0x4a000000
# UVM_INFO apb_slave_driver.sv(38) @ 2385: uvm_test_top.env.act_agent.drv [DRV_SETUP] SETUP :ADDR=0xdb WRITE=1 WDATA=0xcf18cb5b STRB=0xc
# UVM_INFO apb_slave_driver.sv(46) @ 2395: uvm_test_top.env.act_agent.drv [DRV_ACCESS] ACCESS : ADDR=0xdb WRITE=1
# UVM_INFO apb_slave_active_monitor.sv(43) @ 2415: uvm_test_top.env.act_agent.mon_active [ACT_MON_SETUP] SETUP : ADDR=0xdb WRITE=1 STRB=0xc WDATA=0xcf18cb5b
# UVM_INFO apb_slave_scoreboard.sv(112) @ 2415: uvm_test_top.env.scb [SCBD] WRITE OK: ADDR=0xdb WDATA=0xcf18cb5b STRB=0xc NEW_MEM=0xcf180000
# UVM_INFO apb_slave_driver.sv(38) @ 2455: uvm_test_top.env.act_agent.drv [DRV_SETUP] SETUP :ADDR=0xdb WRITE=0 WDATA=0x3db5feb3 STRB=0xf
# UVM_INFO apb_slave_driver.sv(46) @ 2465: uvm_test_top.env.act_agent.drv [DRV_ACCESS] ACCESS : ADDR=0xdb WRITE=0
# UVM_INFO apb_slave_active_monitor.sv(43) @ 2485: uvm_test_top.env.act_agent.mon_active [ACT_MON_SETUP] SETUP : ADDR=0xdb WRITE=0 STRB=0xf WDATA=0x0
# UVM_INFO apb_slave_scoreboard.sv(148) @ 2485: uvm_test_top.env.scb [SCBD] READ PASS: ADDR=0xdb ACT=0xcf180000 EXP=0xcf180000
# UVM_INFO apb_slave_driver.sv(38) @ 2525: uvm_test_top.env.act_agent.drv [DRV_SETUP] SETUP :ADDR=0x36 WRITE=1 WDATA=0xe55be7e5 STRB=0x2
# UVM_INFO apb_slave_driver.sv(46) @ 2535: uvm_test_top.env.act_agent.drv [DRV_ACCESS] ACCESS : ADDR=0x36 WRITE=1
# UVM_INFO apb_slave_active_monitor.sv(43) @ 2555: uvm_test_top.env.act_agent.mon_active [ACT_MON_SETUP] SETUP : ADDR=0x36 WRITE=1 STRB=0x2 WDATA=0xe55be7e5
# UVM_INFO apb_slave_scoreboard.sv(112) @ 2555: uvm_test_top.env.scb [SCBD] WRITE OK: ADDR=0x36 WDATA=0xe55be7e5 STRB=0x2 NEW_MEM=0xe700
# UVM_INFO apb_slave_driver.sv(38) @ 2595: uvm_test_top.env.act_agent.drv [DRV_SETUP] SETUP :ADDR=0x36 WRITE=0 WDATA=0xde1d0dac STRB=0x4
# UVM_INFO apb_slave_driver.sv(46) @ 2605: uvm_test_top.env.act_agent.drv [DRV_ACCESS] ACCESS : ADDR=0x36 WRITE=0
# UVM_INFO apb_slave_active_monitor.sv(43) @ 2625: uvm_test_top.env.act_agent.mon_active [ACT_MON_SETUP] SETUP : ADDR=0x36 WRITE=0 STRB=0x4 WDATA=0x0
# UVM_INFO apb_slave_scoreboard.sv(148) @ 2625: uvm_test_top.env.scb [SCBD] READ PASS: ADDR=0x36 ACT=0xe700 EXP=0xe700
# UVM_INFO apb_slave_driver.sv(38) @ 2665: uvm_test_top.env.act_agent.drv [DRV_SETUP] SETUP :ADDR=0x5e WRITE=1 WDATA=0x930c8efe STRB=0x3
# UVM_INFO apb_slave_driver.sv(46) @ 2675: uvm_test_top.env.act_agent.drv [DRV_ACCESS] ACCESS : ADDR=0x5e WRITE=1
# UVM_INFO apb_slave_active_monitor.sv(43) @ 2695: uvm_test_top.env.act_agent.mon_active [ACT_MON_SETUP] SETUP : ADDR=0x5e WRITE=1 STRB=0x3 WDATA=0x930c8efe
# UVM_INFO apb_slave_scoreboard.sv(112) @ 2695: uvm_test_top.env.scb [SCBD] WRITE OK: ADDR=0x5e WDATA=0x930c8efe STRB=0x3 NEW_MEM=0x8efe
# UVM_INFO apb_slave_driver.sv(38) @ 2735: uvm_test_top.env.act_agent.drv [DRV_SETUP] SETUP :ADDR=0x5e WRITE=0 WDATA=0x7a1067e0 STRB=0xc
# UVM_INFO apb_slave_driver.sv(46) @ 2745: uvm_test_top.env.act_agent.drv [DRV_ACCESS] ACCESS : ADDR=0x5e WRITE=0
# UVM_INFO apb_slave_active_monitor.sv(43) @ 2765: uvm_test_top.env.act_agent.mon_active [ACT_MON_SETUP] SETUP : ADDR=0x5e WRITE=0 STRB=0xc WDATA=0x0
# UVM_INFO apb_slave_scoreboard.sv(148) @ 2765: uvm_test_top.env.scb [SCBD] READ PASS: ADDR=0x5e ACT=0x8efe EXP=0x8efe
# UVM_INFO apb_slave_driver.sv(38) @ 2805: uvm_test_top.env.act_agent.drv [DRV_SETUP] SETUP :ADDR=0xc6 WRITE=1 WDATA=0xc83896dc STRB=0x2
# UVM_INFO apb_slave_driver.sv(46) @ 2815: uvm_test_top.env.act_agent.drv [DRV_ACCESS] ACCESS : ADDR=0xc6 WRITE=1
# UVM_INFO apb_slave_active_monitor.sv(43) @ 2835: uvm_test_top.env.act_agent.mon_active [ACT_MON_SETUP] SETUP : ADDR=0xc6 WRITE=1 STRB=0x2 WDATA=0xc83896dc
# UVM_INFO apb_slave_scoreboard.sv(112) @ 2835: uvm_test_top.env.scb [SCBD] WRITE OK: ADDR=0xc6 WDATA=0xc83896dc STRB=0x2 NEW_MEM=0x9600
# UVM_INFO apb_slave_driver.sv(38) @ 2875: uvm_test_top.env.act_agent.drv [DRV_SETUP] SETUP :ADDR=0xc6 WRITE=0 WDATA=0x3ddf4ece STRB=0x3
# UVM_INFO apb_slave_driver.sv(46) @ 2885: uvm_test_top.env.act_agent.drv [DRV_ACCESS] ACCESS : ADDR=0xc6 WRITE=0
# UVM_INFO apb_slave_active_monitor.sv(43) @ 2905: uvm_test_top.env.act_agent.mon_active [ACT_MON_SETUP] SETUP : ADDR=0xc6 WRITE=0 STRB=0x3 WDATA=0x0
# UVM_INFO apb_slave_scoreboard.sv(148) @ 2905: uvm_test_top.env.scb [SCBD] READ PASS: ADDR=0xc6 ACT=0x9600 EXP=0x9600
# UVM_WARNING apb_slave_sequence.sv(134) @ 2935: uvm_test_top.env.act_agent.seqr@@reg_seq.err_seq [RNDFLD] Randomization failed in uvm_do_with action
# UVM_INFO apb_slave_driver.sv(38) @ 2945: uvm_test_top.env.act_agent.drv [DRV_SETUP] SETUP :ADDR=0x0 WRITE=0 WDATA=0x0 STRB=0x0
# UVM_INFO apb_slave_driver.sv(46) @ 2955: uvm_test_top.env.act_agent.drv [DRV_ACCESS] ACCESS : ADDR=0x0 WRITE=0
# UVM_INFO apb_slave_active_monitor.sv(43) @ 2975: uvm_test_top.env.act_agent.mon_active [ACT_MON_SETUP] SETUP : ADDR=0x0 WRITE=0 STRB=0x0 WDATA=0x0
# UVM_INFO apb_slave_scoreboard.sv(148) @ 2975: uvm_test_top.env.scb [SCBD] READ PASS: ADDR=0x0 ACT=0x0 EXP=0x0
# UVM_WARNING apb_slave_sequence.sv(141) @ 3005: uvm_test_top.env.act_agent.seqr@@reg_seq.err_seq [RNDFLD] Randomization failed in uvm_do_with action
# UVM_INFO apb_slave_driver.sv(38) @ 3015: uvm_test_top.env.act_agent.drv [DRV_SETUP] SETUP :ADDR=0x0 WRITE=0 WDATA=0x0 STRB=0x0
# UVM_INFO apb_slave_driver.sv(46) @ 3025: uvm_test_top.env.act_agent.drv [DRV_ACCESS] ACCESS : ADDR=0x0 WRITE=0
# UVM_INFO apb_slave_active_monitor.sv(43) @ 3045: uvm_test_top.env.act_agent.mon_active [ACT_MON_SETUP] SETUP : ADDR=0x0 WRITE=0 STRB=0x0 WDATA=0x0
# UVM_INFO apb_slave_scoreboard.sv(148) @ 3045: uvm_test_top.env.scb [SCBD] READ PASS: ADDR=0x0 ACT=0x0 EXP=0x0
# UVM_WARNING apb_slave_sequence.sv(134) @ 3075: uvm_test_top.env.act_agent.seqr@@reg_seq.err_seq [RNDFLD] Randomization failed in uvm_do_with action
# UVM_INFO apb_slave_driver.sv(38) @ 3085: uvm_test_top.env.act_agent.drv [DRV_SETUP] SETUP :ADDR=0x0 WRITE=0 WDATA=0x0 STRB=0x0
# UVM_INFO apb_slave_driver.sv(46) @ 3095: uvm_test_top.env.act_agent.drv [DRV_ACCESS] ACCESS : ADDR=0x0 WRITE=0
# UVM_INFO apb_slave_active_monitor.sv(43) @ 3115: uvm_test_top.env.act_agent.mon_active [ACT_MON_SETUP] SETUP : ADDR=0x0 WRITE=0 STRB=0x0 WDATA=0x0
# UVM_INFO apb_slave_scoreboard.sv(148) @ 3115: uvm_test_top.env.scb [SCBD] READ PASS: ADDR=0x0 ACT=0x0 EXP=0x0
# UVM_WARNING apb_slave_sequence.sv(141) @ 3145: uvm_test_top.env.act_agent.seqr@@reg_seq.err_seq [RNDFLD] Randomization failed in uvm_do_with action
# UVM_INFO apb_slave_driver.sv(38) @ 3155: uvm_test_top.env.act_agent.drv [DRV_SETUP] SETUP :ADDR=0x0 WRITE=0 WDATA=0x0 STRB=0x0
# UVM_INFO apb_slave_driver.sv(46) @ 3165: uvm_test_top.env.act_agent.drv [DRV_ACCESS] ACCESS : ADDR=0x0 WRITE=0
# UVM_INFO apb_slave_active_monitor.sv(43) @ 3185: uvm_test_top.env.act_agent.mon_active [ACT_MON_SETUP] SETUP : ADDR=0x0 WRITE=0 STRB=0x0 WDATA=0x0
# UVM_INFO apb_slave_scoreboard.sv(148) @ 3185: uvm_test_top.env.scb [SCBD] READ PASS: ADDR=0x0 ACT=0x0 EXP=0x0
# UVM_WARNING apb_slave_sequence.sv(134) @ 3215: uvm_test_top.env.act_agent.seqr@@reg_seq.err_seq [RNDFLD] Randomization failed in uvm_do_with action
# UVM_INFO apb_slave_driver.sv(38) @ 3225: uvm_test_top.env.act_agent.drv [DRV_SETUP] SETUP :ADDR=0x0 WRITE=0 WDATA=0x0 STRB=0x0
# UVM_INFO apb_slave_driver.sv(46) @ 3235: uvm_test_top.env.act_agent.drv [DRV_ACCESS] ACCESS : ADDR=0x0 WRITE=0
# UVM_INFO apb_slave_active_monitor.sv(43) @ 3255: uvm_test_top.env.act_agent.mon_active [ACT_MON_SETUP] SETUP : ADDR=0x0 WRITE=0 STRB=0x0 WDATA=0x0
# UVM_INFO apb_slave_scoreboard.sv(148) @ 3255: uvm_test_top.env.scb [SCBD] READ PASS: ADDR=0x0 ACT=0x0 EXP=0x0
# UVM_WARNING apb_slave_sequence.sv(141) @ 3285: uvm_test_top.env.act_agent.seqr@@reg_seq.err_seq [RNDFLD] Randomization failed in uvm_do_with action
# UVM_INFO apb_slave_driver.sv(38) @ 3295: uvm_test_top.env.act_agent.drv [DRV_SETUP] SETUP :ADDR=0x0 WRITE=0 WDATA=0x0 STRB=0x0
# UVM_INFO apb_slave_driver.sv(46) @ 3305: uvm_test_top.env.act_agent.drv [DRV_ACCESS] ACCESS : ADDR=0x0 WRITE=0
# UVM_INFO apb_slave_active_monitor.sv(43) @ 3325: uvm_test_top.env.act_agent.mon_active [ACT_MON_SETUP] SETUP : ADDR=0x0 WRITE=0 STRB=0x0 WDATA=0x0
# UVM_INFO apb_slave_scoreboard.sv(148) @ 3325: uvm_test_top.env.scb [SCBD] READ PASS: ADDR=0x0 ACT=0x0 EXP=0x0
# UVM_WARNING apb_slave_sequence.sv(134) @ 3355: uvm_test_top.env.act_agent.seqr@@reg_seq.err_seq [RNDFLD] Randomization failed in uvm_do_with action
# UVM_INFO apb_slave_driver.sv(38) @ 3365: uvm_test_top.env.act_agent.drv [DRV_SETUP] SETUP :ADDR=0x0 WRITE=0 WDATA=0x0 STRB=0x0
# UVM_INFO apb_slave_driver.sv(46) @ 3375: uvm_test_top.env.act_agent.drv [DRV_ACCESS] ACCESS : ADDR=0x0 WRITE=0
# UVM_INFO apb_slave_active_monitor.sv(43) @ 3395: uvm_test_top.env.act_agent.mon_active [ACT_MON_SETUP] SETUP : ADDR=0x0 WRITE=0 STRB=0x0 WDATA=0x0
# UVM_INFO apb_slave_scoreboard.sv(148) @ 3395: uvm_test_top.env.scb [SCBD] READ PASS: ADDR=0x0 ACT=0x0 EXP=0x0
# UVM_WARNING apb_slave_sequence.sv(141) @ 3425: uvm_test_top.env.act_agent.seqr@@reg_seq.err_seq [RNDFLD] Randomization failed in uvm_do_with action
# UVM_INFO apb_slave_driver.sv(38) @ 3435: uvm_test_top.env.act_agent.drv [DRV_SETUP] SETUP :ADDR=0x0 WRITE=0 WDATA=0x0 STRB=0x0
# UVM_INFO apb_slave_driver.sv(46) @ 3445: uvm_test_top.env.act_agent.drv [DRV_ACCESS] ACCESS : ADDR=0x0 WRITE=0
# UVM_INFO apb_slave_active_monitor.sv(43) @ 3465: uvm_test_top.env.act_agent.mon_active [ACT_MON_SETUP] SETUP : ADDR=0x0 WRITE=0 STRB=0x0 WDATA=0x0
# UVM_INFO apb_slave_scoreboard.sv(148) @ 3465: uvm_test_top.env.scb [SCBD] READ PASS: ADDR=0x0 ACT=0x0 EXP=0x0
# UVM_WARNING apb_slave_sequence.sv(134) @ 3495: uvm_test_top.env.act_agent.seqr@@reg_seq.err_seq [RNDFLD] Randomization failed in uvm_do_with action
# UVM_INFO apb_slave_driver.sv(38) @ 3505: uvm_test_top.env.act_agent.drv [DRV_SETUP] SETUP :ADDR=0x0 WRITE=0 WDATA=0x0 STRB=0x0
# UVM_INFO apb_slave_driver.sv(46) @ 3515: uvm_test_top.env.act_agent.drv [DRV_ACCESS] ACCESS : ADDR=0x0 WRITE=0
# UVM_INFO apb_slave_active_monitor.sv(43) @ 3535: uvm_test_top.env.act_agent.mon_active [ACT_MON_SETUP] SETUP : ADDR=0x0 WRITE=0 STRB=0x0 WDATA=0x0
# UVM_INFO apb_slave_scoreboard.sv(148) @ 3535: uvm_test_top.env.scb [SCBD] READ PASS: ADDR=0x0 ACT=0x0 EXP=0x0
# UVM_WARNING apb_slave_sequence.sv(141) @ 3565: uvm_test_top.env.act_agent.seqr@@reg_seq.err_seq [RNDFLD] Randomization failed in uvm_do_with action
# UVM_INFO apb_slave_driver.sv(38) @ 3575: uvm_test_top.env.act_agent.drv [DRV_SETUP] SETUP :ADDR=0x0 WRITE=0 WDATA=0x0 STRB=0x0
# UVM_INFO apb_slave_driver.sv(46) @ 3585: uvm_test_top.env.act_agent.drv [DRV_ACCESS] ACCESS : ADDR=0x0 WRITE=0
# UVM_INFO apb_slave_active_monitor.sv(43) @ 3605: uvm_test_top.env.act_agent.mon_active [ACT_MON_SETUP] SETUP : ADDR=0x0 WRITE=0 STRB=0x0 WDATA=0x0
# UVM_INFO apb_slave_scoreboard.sv(148) @ 3605: uvm_test_top.env.scb [SCBD] READ PASS: ADDR=0x0 ACT=0x0 EXP=0x0
# UVM_INFO apb_slave_driver.sv(38) @ 3645: uvm_test_top.env.act_agent.drv [DRV_SETUP] SETUP :ADDR=0xe8 WRITE=1 WDATA=0x8333f82c STRB=0xf
# UVM_INFO apb_slave_driver.sv(46) @ 3655: uvm_test_top.env.act_agent.drv [DRV_ACCESS] ACCESS : ADDR=0xe8 WRITE=1
# UVM_INFO apb_slave_active_monitor.sv(43) @ 3675: uvm_test_top.env.act_agent.mon_active [ACT_MON_SETUP] SETUP : ADDR=0xe8 WRITE=1 STRB=0xf WDATA=0x8333f82c
# UVM_INFO apb_slave_scoreboard.sv(112) @ 3675: uvm_test_top.env.scb [SCBD] WRITE OK: ADDR=0xe8 WDATA=0x8333f82c STRB=0xf NEW_MEM=0x8333f82c
# UVM_INFO apb_slave_driver.sv(38) @ 3715: uvm_test_top.env.act_agent.drv [DRV_SETUP] SETUP :ADDR=0xea WRITE=0 WDATA=0x14be0464 STRB=0xf
# UVM_INFO apb_slave_driver.sv(46) @ 3725: uvm_test_top.env.act_agent.drv [DRV_ACCESS] ACCESS : ADDR=0xea WRITE=0
# UVM_INFO apb_slave_active_monitor.sv(43) @ 3745: uvm_test_top.env.act_agent.mon_active [ACT_MON_SETUP] SETUP : ADDR=0xea WRITE=0 STRB=0xf WDATA=0x0
# UVM_INFO apb_slave_scoreboard.sv(148) @ 3745: uvm_test_top.env.scb [SCBD] READ PASS: ADDR=0xea ACT=0x0 EXP=0x0
# UVM_INFO apb_slave_driver.sv(38) @ 3785: uvm_test_top.env.act_agent.drv [DRV_SETUP] SETUP :ADDR=0x9a WRITE=1 WDATA=0x3b0257ca STRB=0xf
# UVM_INFO apb_slave_driver.sv(46) @ 3795: uvm_test_top.env.act_agent.drv [DRV_ACCESS] ACCESS : ADDR=0x9a WRITE=1
# UVM_INFO apb_slave_active_monitor.sv(43) @ 3815: uvm_test_top.env.act_agent.mon_active [ACT_MON_SETUP] SETUP : ADDR=0x9a WRITE=1 STRB=0xf WDATA=0x3b0257ca
# UVM_INFO apb_slave_scoreboard.sv(112) @ 3815: uvm_test_top.env.scb [SCBD] WRITE OK: ADDR=0x9a WDATA=0x3b0257ca STRB=0xf NEW_MEM=0x3b0257ca
# UVM_INFO apb_slave_driver.sv(38) @ 3855: uvm_test_top.env.act_agent.drv [DRV_SETUP] SETUP :ADDR=0xd WRITE=0 WDATA=0x12f2f478 STRB=0xf
# UVM_INFO apb_slave_driver.sv(46) @ 3865: uvm_test_top.env.act_agent.drv [DRV_ACCESS] ACCESS : ADDR=0xd WRITE=0
# UVM_INFO apb_slave_active_monitor.sv(43) @ 3885: uvm_test_top.env.act_agent.mon_active [ACT_MON_SETUP] SETUP : ADDR=0xd WRITE=0 STRB=0xf WDATA=0x0
# UVM_INFO apb_slave_scoreboard.sv(148) @ 3885: uvm_test_top.env.scb [SCBD] READ PASS: ADDR=0xd ACT=0x0 EXP=0x0
# UVM_INFO apb_slave_driver.sv(38) @ 3925: uvm_test_top.env.act_agent.drv [DRV_SETUP] SETUP :ADDR=0xac WRITE=1 WDATA=0x738caf3d STRB=0xf
# UVM_INFO apb_slave_driver.sv(46) @ 3935: uvm_test_top.env.act_agent.drv [DRV_ACCESS] ACCESS : ADDR=0xac WRITE=1
# UVM_INFO apb_slave_active_monitor.sv(43) @ 3955: uvm_test_top.env.act_agent.mon_active [ACT_MON_SETUP] SETUP : ADDR=0xac WRITE=1 STRB=0xf WDATA=0x738caf3d
# UVM_INFO apb_slave_scoreboard.sv(112) @ 3955: uvm_test_top.env.scb [SCBD] WRITE OK: ADDR=0xac WDATA=0x738caf3d STRB=0xf NEW_MEM=0x738caf3d
# UVM_INFO apb_slave_driver.sv(38) @ 3995: uvm_test_top.env.act_agent.drv [DRV_SETUP] SETUP :ADDR=0x0 WRITE=1 WDATA=0x3840678d STRB=0xf
# UVM_INFO apb_slave_driver.sv(46) @ 4005: uvm_test_top.env.act_agent.drv [DRV_ACCESS] ACCESS : ADDR=0x0 WRITE=1
# UVM_INFO apb_slave_active_monitor.sv(43) @ 4025: uvm_test_top.env.act_agent.mon_active [ACT_MON_SETUP] SETUP : ADDR=0x0 WRITE=1 STRB=0xf WDATA=0x3840678d
# UVM_INFO apb_slave_scoreboard.sv(112) @ 4025: uvm_test_top.env.scb [SCBD] WRITE OK: ADDR=0x0 WDATA=0x3840678d STRB=0xf NEW_MEM=0x3840678d
# UVM_INFO apb_slave_driver.sv(38) @ 4065: uvm_test_top.env.act_agent.drv [DRV_SETUP] SETUP :ADDR=0x0 WRITE=0 WDATA=0xe875b0ce STRB=0x1
# UVM_INFO apb_slave_driver.sv(46) @ 4075: uvm_test_top.env.act_agent.drv [DRV_ACCESS] ACCESS : ADDR=0x0 WRITE=0
# UVM_INFO apb_slave_active_monitor.sv(43) @ 4095: uvm_test_top.env.act_agent.mon_active [ACT_MON_SETUP] SETUP : ADDR=0x0 WRITE=0 STRB=0x1 WDATA=0x0
# UVM_INFO apb_slave_scoreboard.sv(148) @ 4095: uvm_test_top.env.scb [SCBD] READ PASS: ADDR=0x0 ACT=0x3840678d EXP=0x3840678d
# UVM_INFO apb_slave_driver.sv(38) @ 4135: uvm_test_top.env.act_agent.drv [DRV_SETUP] SETUP :ADDR=0x1 WRITE=1 WDATA=0xbddfa166 STRB=0xf
# UVM_INFO apb_slave_driver.sv(46) @ 4145: uvm_test_top.env.act_agent.drv [DRV_ACCESS] ACCESS : ADDR=0x1 WRITE=1
# UVM_INFO apb_slave_active_monitor.sv(43) @ 4165: uvm_test_top.env.act_agent.mon_active [ACT_MON_SETUP] SETUP : ADDR=0x1 WRITE=1 STRB=0xf WDATA=0xbddfa166
# UVM_INFO apb_slave_scoreboard.sv(112) @ 4165: uvm_test_top.env.scb [SCBD] WRITE OK: ADDR=0x1 WDATA=0xbddfa166 STRB=0xf NEW_MEM=0xbddfa166
# UVM_INFO apb_slave_driver.sv(38) @ 4205: uvm_test_top.env.act_agent.drv [DRV_SETUP] SETUP :ADDR=0x1 WRITE=0 WDATA=0x6349e9c5 STRB=0x9
# UVM_INFO apb_slave_driver.sv(46) @ 4215: uvm_test_top.env.act_agent.drv [DRV_ACCESS] ACCESS : ADDR=0x1 WRITE=0
# UVM_INFO apb_slave_active_monitor.sv(43) @ 4235: uvm_test_top.env.act_agent.mon_active [ACT_MON_SETUP] SETUP : ADDR=0x1 WRITE=0 STRB=0x9 WDATA=0x0
# UVM_INFO apb_slave_scoreboard.sv(148) @ 4235: uvm_test_top.env.scb [SCBD] READ PASS: ADDR=0x1 ACT=0xbddfa166 EXP=0xbddfa166
# UVM_INFO apb_slave_driver.sv(38) @ 4275: uvm_test_top.env.act_agent.drv [DRV_SETUP] SETUP :ADDR=0x2 WRITE=1 WDATA=0x1393bc77 STRB=0xf
# UVM_INFO apb_slave_driver.sv(46) @ 4285: uvm_test_top.env.act_agent.drv [DRV_ACCESS] ACCESS : ADDR=0x2 WRITE=1
# UVM_INFO apb_slave_active_monitor.sv(43) @ 4305: uvm_test_top.env.act_agent.mon_active [ACT_MON_SETUP] SETUP : ADDR=0x2 WRITE=1 STRB=0xf WDATA=0x1393bc77
# UVM_INFO apb_slave_scoreboard.sv(112) @ 4305: uvm_test_top.env.scb [SCBD] WRITE OK: ADDR=0x2 WDATA=0x1393bc77 STRB=0xf NEW_MEM=0x1393bc77
# UVM_INFO apb_slave_driver.sv(38) @ 4345: uvm_test_top.env.act_agent.drv [DRV_SETUP] SETUP :ADDR=0x2 WRITE=0 WDATA=0x7f51423e STRB=0xd
# UVM_INFO apb_slave_driver.sv(46) @ 4355: uvm_test_top.env.act_agent.drv [DRV_ACCESS] ACCESS : ADDR=0x2 WRITE=0
# UVM_INFO apb_slave_active_monitor.sv(43) @ 4375: uvm_test_top.env.act_agent.mon_active [ACT_MON_SETUP] SETUP : ADDR=0x2 WRITE=0 STRB=0xd WDATA=0x0
# UVM_INFO apb_slave_scoreboard.sv(148) @ 4375: uvm_test_top.env.scb [SCBD] READ PASS: ADDR=0x2 ACT=0x1393bc77 EXP=0x1393bc77
# UVM_INFO apb_slave_driver.sv(38) @ 4415: uvm_test_top.env.act_agent.drv [DRV_SETUP] SETUP :ADDR=0x3 WRITE=1 WDATA=0xeef90c6d STRB=0xf
# UVM_INFO apb_slave_driver.sv(46) @ 4425: uvm_test_top.env.act_agent.drv [DRV_ACCESS] ACCESS : ADDR=0x3 WRITE=1
# UVM_INFO apb_slave_active_monitor.sv(43) @ 4445: uvm_test_top.env.act_agent.mon_active [ACT_MON_SETUP] SETUP : ADDR=0x3 WRITE=1 STRB=0xf WDATA=0xeef90c6d
# UVM_INFO apb_slave_scoreboard.sv(112) @ 4445: uvm_test_top.env.scb [SCBD] WRITE OK: ADDR=0x3 WDATA=0xeef90c6d STRB=0xf NEW_MEM=0xeef90c6d
# UVM_INFO apb_slave_driver.sv(38) @ 4485: uvm_test_top.env.act_agent.drv [DRV_SETUP] SETUP :ADDR=0x3 WRITE=0 WDATA=0xadee6b5d STRB=0xf
# UVM_INFO apb_slave_driver.sv(46) @ 4495: uvm_test_top.env.act_agent.drv [DRV_ACCESS] ACCESS : ADDR=0x3 WRITE=0
# UVM_INFO apb_slave_active_monitor.sv(43) @ 4515: uvm_test_top.env.act_agent.mon_active [ACT_MON_SETUP] SETUP : ADDR=0x3 WRITE=0 STRB=0xf WDATA=0x0
# UVM_INFO apb_slave_scoreboard.sv(148) @ 4515: uvm_test_top.env.scb [SCBD] READ PASS: ADDR=0x3 ACT=0xeef90c6d EXP=0xeef90c6d
# UVM_INFO apb_slave_driver.sv(38) @ 4555: uvm_test_top.env.act_agent.drv [DRV_SETUP] SETUP :ADDR=0x4 WRITE=1 WDATA=0xaae29589 STRB=0xf
# UVM_INFO apb_slave_driver.sv(46) @ 4565: uvm_test_top.env.act_agent.drv [DRV_ACCESS] ACCESS : ADDR=0x4 WRITE=1
# UVM_INFO apb_slave_active_monitor.sv(43) @ 4585: uvm_test_top.env.act_agent.mon_active [ACT_MON_SETUP] SETUP : ADDR=0x4 WRITE=1 STRB=0xf WDATA=0xaae29589
# UVM_INFO apb_slave_scoreboard.sv(112) @ 4585: uvm_test_top.env.scb [SCBD] WRITE OK: ADDR=0x4 WDATA=0xaae29589 STRB=0xf NEW_MEM=0xaae29589
# UVM_INFO apb_slave_driver.sv(38) @ 4625: uvm_test_top.env.act_agent.drv [DRV_SETUP] SETUP :ADDR=0x4 WRITE=0 WDATA=0xaa4020e4 STRB=0xa
# UVM_INFO apb_slave_driver.sv(46) @ 4635: uvm_test_top.env.act_agent.drv [DRV_ACCESS] ACCESS : ADDR=0x4 WRITE=0
# UVM_INFO apb_slave_active_monitor.sv(43) @ 4655: uvm_test_top.env.act_agent.mon_active [ACT_MON_SETUP] SETUP : ADDR=0x4 WRITE=0 STRB=0xa WDATA=0x0
# UVM_INFO apb_slave_scoreboard.sv(148) @ 4655: uvm_test_top.env.scb [SCBD] READ PASS: ADDR=0x4 ACT=0xaae29589 EXP=0xaae29589
# UVM_INFO apb_slave_driver.sv(38) @ 4695: uvm_test_top.env.act_agent.drv [DRV_SETUP] SETUP :ADDR=0x5 WRITE=1 WDATA=0xdc74f400 STRB=0xf
# UVM_INFO apb_slave_driver.sv(46) @ 4705: uvm_test_top.env.act_agent.drv [DRV_ACCESS] ACCESS : ADDR=0x5 WRITE=1
# UVM_INFO apb_slave_active_monitor.sv(43) @ 4725: uvm_test_top.env.act_agent.mon_active [ACT_MON_SETUP] SETUP : ADDR=0x5 WRITE=1 STRB=0xf WDATA=0xdc74f400
# UVM_INFO apb_slave_scoreboard.sv(112) @ 4725: uvm_test_top.env.scb [SCBD] WRITE OK: ADDR=0x5 WDATA=0xdc74f400 STRB=0xf NEW_MEM=0xdc74f400
# UVM_INFO apb_slave_driver.sv(38) @ 4765: uvm_test_top.env.act_agent.drv [DRV_SETUP] SETUP :ADDR=0x5 WRITE=0 WDATA=0x84e9c068 STRB=0xf
# UVM_INFO apb_slave_driver.sv(46) @ 4775: uvm_test_top.env.act_agent.drv [DRV_ACCESS] ACCESS : ADDR=0x5 WRITE=0
# UVM_INFO apb_slave_active_monitor.sv(43) @ 4795: uvm_test_top.env.act_agent.mon_active [ACT_MON_SETUP] SETUP : ADDR=0x5 WRITE=0 STRB=0xf WDATA=0x0
# UVM_INFO apb_slave_scoreboard.sv(148) @ 4795: uvm_test_top.env.scb [SCBD] READ PASS: ADDR=0x5 ACT=0xdc74f400 EXP=0xdc74f400
# UVM_INFO apb_slave_driver.sv(38) @ 4835: uvm_test_top.env.act_agent.drv [DRV_SETUP] SETUP :ADDR=0x6 WRITE=1 WDATA=0xbf3265c9 STRB=0xf
# UVM_INFO apb_slave_driver.sv(46) @ 4845: uvm_test_top.env.act_agent.drv [DRV_ACCESS] ACCESS : ADDR=0x6 WRITE=1
# UVM_INFO apb_slave_active_monitor.sv(43) @ 4865: uvm_test_top.env.act_agent.mon_active [ACT_MON_SETUP] SETUP : ADDR=0x6 WRITE=1 STRB=0xf WDATA=0xbf3265c9
# UVM_INFO apb_slave_scoreboard.sv(112) @ 4865: uvm_test_top.env.scb [SCBD] WRITE OK: ADDR=0x6 WDATA=0xbf3265c9 STRB=0xf NEW_MEM=0xbf3265c9
# UVM_INFO apb_slave_driver.sv(38) @ 4905: uvm_test_top.env.act_agent.drv [DRV_SETUP] SETUP :ADDR=0x6 WRITE=0 WDATA=0x84c4e12f STRB=0xe
# UVM_INFO apb_slave_driver.sv(46) @ 4915: uvm_test_top.env.act_agent.drv [DRV_ACCESS] ACCESS : ADDR=0x6 WRITE=0
# UVM_INFO apb_slave_active_monitor.sv(43) @ 4935: uvm_test_top.env.act_agent.mon_active [ACT_MON_SETUP] SETUP : ADDR=0x6 WRITE=0 STRB=0xe WDATA=0x0
# UVM_INFO apb_slave_scoreboard.sv(148) @ 4935: uvm_test_top.env.scb [SCBD] READ PASS: ADDR=0x6 ACT=0xbf3265c9 EXP=0xbf3265c9
# UVM_INFO apb_slave_driver.sv(38) @ 4975: uvm_test_top.env.act_agent.drv [DRV_SETUP] SETUP :ADDR=0x7 WRITE=1 WDATA=0x729bb58 STRB=0xf
# UVM_INFO apb_slave_driver.sv(46) @ 4985: uvm_test_top.env.act_agent.drv [DRV_ACCESS] ACCESS : ADDR=0x7 WRITE=1
# UVM_INFO apb_slave_active_monitor.sv(43) @ 5005: uvm_test_top.env.act_agent.mon_active [ACT_MON_SETUP] SETUP : ADDR=0x7 WRITE=1 STRB=0xf WDATA=0x729bb58
# UVM_INFO apb_slave_scoreboard.sv(112) @ 5005: uvm_test_top.env.scb [SCBD] WRITE OK: ADDR=0x7 WDATA=0x729bb58 STRB=0xf NEW_MEM=0x729bb58
# UVM_INFO apb_slave_driver.sv(38) @ 5045: uvm_test_top.env.act_agent.drv [DRV_SETUP] SETUP :ADDR=0x7 WRITE=0 WDATA=0x5fcf91ea STRB=0x6
# UVM_INFO apb_slave_driver.sv(46) @ 5055: uvm_test_top.env.act_agent.drv [DRV_ACCESS] ACCESS : ADDR=0x7 WRITE=0
# UVM_INFO apb_slave_active_monitor.sv(43) @ 5075: uvm_test_top.env.act_agent.mon_active [ACT_MON_SETUP] SETUP : ADDR=0x7 WRITE=0 STRB=0x6 WDATA=0x0
# UVM_INFO apb_slave_scoreboard.sv(148) @ 5075: uvm_test_top.env.scb [SCBD] READ PASS: ADDR=0x7 ACT=0x729bb58 EXP=0x729bb58
# UVM_INFO apb_slave_driver.sv(38) @ 5115: uvm_test_top.env.act_agent.drv [DRV_SETUP] SETUP :ADDR=0x8 WRITE=1 WDATA=0xa3a6808e STRB=0xf
# UVM_INFO apb_slave_driver.sv(46) @ 5125: uvm_test_top.env.act_agent.drv [DRV_ACCESS] ACCESS : ADDR=0x8 WRITE=1
# UVM_INFO apb_slave_active_monitor.sv(43) @ 5145: uvm_test_top.env.act_agent.mon_active [ACT_MON_SETUP] SETUP : ADDR=0x8 WRITE=1 STRB=0xf WDATA=0xa3a6808e
# UVM_INFO apb_slave_scoreboard.sv(112) @ 5145: uvm_test_top.env.scb [SCBD] WRITE OK: ADDR=0x8 WDATA=0xa3a6808e STRB=0xf NEW_MEM=0xa3a6808e
# UVM_INFO apb_slave_driver.sv(38) @ 5185: uvm_test_top.env.act_agent.drv [DRV_SETUP] SETUP :ADDR=0x8 WRITE=0 WDATA=0xf44cdeb6 STRB=0x4
# UVM_INFO apb_slave_driver.sv(46) @ 5195: uvm_test_top.env.act_agent.drv [DRV_ACCESS] ACCESS : ADDR=0x8 WRITE=0
# UVM_INFO apb_slave_active_monitor.sv(43) @ 5215: uvm_test_top.env.act_agent.mon_active [ACT_MON_SETUP] SETUP : ADDR=0x8 WRITE=0 STRB=0x4 WDATA=0x0
# UVM_INFO apb_slave_scoreboard.sv(148) @ 5215: uvm_test_top.env.scb [SCBD] READ PASS: ADDR=0x8 ACT=0xa3a6808e EXP=0xa3a6808e
# UVM_INFO apb_slave_driver.sv(38) @ 5255: uvm_test_top.env.act_agent.drv [DRV_SETUP] SETUP :ADDR=0x9 WRITE=1 WDATA=0xfcba22e8 STRB=0xf
# UVM_INFO apb_slave_driver.sv(46) @ 5265: uvm_test_top.env.act_agent.drv [DRV_ACCESS] ACCESS : ADDR=0x9 WRITE=1
# UVM_INFO apb_slave_active_monitor.sv(43) @ 5285: uvm_test_top.env.act_agent.mon_active [ACT_MON_SETUP] SETUP : ADDR=0x9 WRITE=1 STRB=0xf WDATA=0xfcba22e8
# UVM_INFO apb_slave_scoreboard.sv(112) @ 5285: uvm_test_top.env.scb [SCBD] WRITE OK: ADDR=0x9 WDATA=0xfcba22e8 STRB=0xf NEW_MEM=0xfcba22e8
# UVM_INFO apb_slave_driver.sv(38) @ 5325: uvm_test_top.env.act_agent.drv [DRV_SETUP] SETUP :ADDR=0x9 WRITE=0 WDATA=0xc8fff22d STRB=0x6
# UVM_INFO apb_slave_driver.sv(46) @ 5335: uvm_test_top.env.act_agent.drv [DRV_ACCESS] ACCESS : ADDR=0x9 WRITE=0
# UVM_INFO apb_slave_active_monitor.sv(43) @ 5355: uvm_test_top.env.act_agent.mon_active [ACT_MON_SETUP] SETUP : ADDR=0x9 WRITE=0 STRB=0x6 WDATA=0x0
# UVM_INFO apb_slave_scoreboard.sv(148) @ 5355: uvm_test_top.env.scb [SCBD] READ PASS: ADDR=0x9 ACT=0xfcba22e8 EXP=0xfcba22e8
# UVM_INFO apb_slave_driver.sv(38) @ 5395: uvm_test_top.env.act_agent.drv [DRV_SETUP] SETUP :ADDR=0xa WRITE=1 WDATA=0xee0675c8 STRB=0xf
# UVM_INFO apb_slave_driver.sv(46) @ 5405: uvm_test_top.env.act_agent.drv [DRV_ACCESS] ACCESS : ADDR=0xa WRITE=1
# UVM_INFO apb_slave_active_monitor.sv(43) @ 5425: uvm_test_top.env.act_agent.mon_active [ACT_MON_SETUP] SETUP : ADDR=0xa WRITE=1 STRB=0xf WDATA=0xee0675c8
# UVM_INFO apb_slave_scoreboard.sv(112) @ 5425: uvm_test_top.env.scb [SCBD] WRITE OK: ADDR=0xa WDATA=0xee0675c8 STRB=0xf NEW_MEM=0xee0675c8
# UVM_INFO apb_slave_driver.sv(38) @ 5465: uvm_test_top.env.act_agent.drv [DRV_SETUP] SETUP :ADDR=0xa WRITE=0 WDATA=0x451ddeca STRB=0x5
# UVM_INFO apb_slave_driver.sv(46) @ 5475: uvm_test_top.env.act_agent.drv [DRV_ACCESS] ACCESS : ADDR=0xa WRITE=0
# UVM_INFO apb_slave_active_monitor.sv(43) @ 5495: uvm_test_top.env.act_agent.mon_active [ACT_MON_SETUP] SETUP : ADDR=0xa WRITE=0 STRB=0x5 WDATA=0x0
# UVM_INFO apb_slave_scoreboard.sv(148) @ 5495: uvm_test_top.env.scb [SCBD] READ PASS: ADDR=0xa ACT=0xee0675c8 EXP=0xee0675c8
# UVM_INFO apb_slave_driver.sv(38) @ 5535: uvm_test_top.env.act_agent.drv [DRV_SETUP] SETUP :ADDR=0xb WRITE=1 WDATA=0xd15f9953 STRB=0xf
# UVM_INFO apb_slave_driver.sv(46) @ 5545: uvm_test_top.env.act_agent.drv [DRV_ACCESS] ACCESS : ADDR=0xb WRITE=1
# UVM_INFO apb_slave_active_monitor.sv(43) @ 5565: uvm_test_top.env.act_agent.mon_active [ACT_MON_SETUP] SETUP : ADDR=0xb WRITE=1 STRB=0xf WDATA=0xd15f9953
# UVM_INFO apb_slave_scoreboard.sv(112) @ 5565: uvm_test_top.env.scb [SCBD] WRITE OK: ADDR=0xb WDATA=0xd15f9953 STRB=0xf NEW_MEM=0xd15f9953
# UVM_INFO apb_slave_driver.sv(38) @ 5605: uvm_test_top.env.act_agent.drv [DRV_SETUP] SETUP :ADDR=0xb WRITE=0 WDATA=0xc58323bc STRB=0x1
# UVM_INFO apb_slave_driver.sv(46) @ 5615: uvm_test_top.env.act_agent.drv [DRV_ACCESS] ACCESS : ADDR=0xb WRITE=0
# UVM_INFO apb_slave_active_monitor.sv(43) @ 5635: uvm_test_top.env.act_agent.mon_active [ACT_MON_SETUP] SETUP : ADDR=0xb WRITE=0 STRB=0x1 WDATA=0x0
# UVM_INFO apb_slave_scoreboard.sv(148) @ 5635: uvm_test_top.env.scb [SCBD] READ PASS: ADDR=0xb ACT=0xd15f9953 EXP=0xd15f9953
# UVM_INFO apb_slave_driver.sv(38) @ 5675: uvm_test_top.env.act_agent.drv [DRV_SETUP] SETUP :ADDR=0xc WRITE=1 WDATA=0x15188560 STRB=0xf
# UVM_INFO apb_slave_driver.sv(46) @ 5685: uvm_test_top.env.act_agent.drv [DRV_ACCESS] ACCESS : ADDR=0xc WRITE=1
# UVM_INFO apb_slave_active_monitor.sv(43) @ 5705: uvm_test_top.env.act_agent.mon_active [ACT_MON_SETUP] SETUP : ADDR=0xc WRITE=1 STRB=0xf WDATA=0x15188560
# UVM_INFO apb_slave_scoreboard.sv(112) @ 5705: uvm_test_top.env.scb [SCBD] WRITE OK: ADDR=0xc WDATA=0x15188560 STRB=0xf NEW_MEM=0x15188560
# UVM_INFO apb_slave_driver.sv(38) @ 5745: uvm_test_top.env.act_agent.drv [DRV_SETUP] SETUP :ADDR=0xc WRITE=0 WDATA=0xf7fc224 STRB=0x2
# UVM_INFO apb_slave_driver.sv(46) @ 5755: uvm_test_top.env.act_agent.drv [DRV_ACCESS] ACCESS : ADDR=0xc WRITE=0
# UVM_INFO apb_slave_active_monitor.sv(43) @ 5775: uvm_test_top.env.act_agent.mon_active [ACT_MON_SETUP] SETUP : ADDR=0xc WRITE=0 STRB=0x2 WDATA=0x0
# UVM_INFO apb_slave_scoreboard.sv(148) @ 5775: uvm_test_top.env.scb [SCBD] READ PASS: ADDR=0xc ACT=0x15188560 EXP=0x15188560
# UVM_INFO apb_slave_driver.sv(38) @ 5815: uvm_test_top.env.act_agent.drv [DRV_SETUP] SETUP :ADDR=0xd WRITE=1 WDATA=0xa5825b13 STRB=0xf
# UVM_INFO apb_slave_driver.sv(46) @ 5825: uvm_test_top.env.act_agent.drv [DRV_ACCESS] ACCESS : ADDR=0xd WRITE=1
# UVM_INFO apb_slave_active_monitor.sv(43) @ 5845: uvm_test_top.env.act_agent.mon_active [ACT_MON_SETUP] SETUP : ADDR=0xd WRITE=1 STRB=0xf WDATA=0xa5825b13
# UVM_INFO apb_slave_scoreboard.sv(112) @ 5845: uvm_test_top.env.scb [SCBD] WRITE OK: ADDR=0xd WDATA=0xa5825b13 STRB=0xf NEW_MEM=0xa5825b13
# UVM_INFO apb_slave_driver.sv(38) @ 5885: uvm_test_top.env.act_agent.drv [DRV_SETUP] SETUP :ADDR=0xd WRITE=0 WDATA=0xbdafdcea STRB=0x8
# UVM_INFO apb_slave_driver.sv(46) @ 5895: uvm_test_top.env.act_agent.drv [DRV_ACCESS] ACCESS : ADDR=0xd WRITE=0
# UVM_INFO apb_slave_active_monitor.sv(43) @ 5915: uvm_test_top.env.act_agent.mon_active [ACT_MON_SETUP] SETUP : ADDR=0xd WRITE=0 STRB=0x8 WDATA=0x0
# UVM_INFO apb_slave_scoreboard.sv(148) @ 5915: uvm_test_top.env.scb [SCBD] READ PASS: ADDR=0xd ACT=0xa5825b13 EXP=0xa5825b13
# UVM_INFO apb_slave_driver.sv(38) @ 5955: uvm_test_top.env.act_agent.drv [DRV_SETUP] SETUP :ADDR=0xe WRITE=1 WDATA=0x8218e91e STRB=0xf
# UVM_INFO apb_slave_driver.sv(46) @ 5965: uvm_test_top.env.act_agent.drv [DRV_ACCESS] ACCESS : ADDR=0xe WRITE=1
# UVM_INFO apb_slave_active_monitor.sv(43) @ 5985: uvm_test_top.env.act_agent.mon_active [ACT_MON_SETUP] SETUP : ADDR=0xe WRITE=1 STRB=0xf WDATA=0x8218e91e
# UVM_INFO apb_slave_scoreboard.sv(112) @ 5985: uvm_test_top.env.scb [SCBD] WRITE OK: ADDR=0xe WDATA=0x8218e91e STRB=0xf NEW_MEM=0x8218e91e
# UVM_INFO apb_slave_driver.sv(38) @ 6025: uvm_test_top.env.act_agent.drv [DRV_SETUP] SETUP :ADDR=0xe WRITE=0 WDATA=0xb4e44b71 STRB=0x7
# UVM_INFO apb_slave_driver.sv(46) @ 6035: uvm_test_top.env.act_agent.drv [DRV_ACCESS] ACCESS : ADDR=0xe WRITE=0
# UVM_INFO apb_slave_active_monitor.sv(43) @ 6055: uvm_test_top.env.act_agent.mon_active [ACT_MON_SETUP] SETUP : ADDR=0xe WRITE=0 STRB=0x7 WDATA=0x0
# UVM_INFO apb_slave_scoreboard.sv(148) @ 6055: uvm_test_top.env.scb [SCBD] READ PASS: ADDR=0xe ACT=0x8218e91e EXP=0x8218e91e
# UVM_INFO apb_slave_driver.sv(38) @ 6095: uvm_test_top.env.act_agent.drv [DRV_SETUP] SETUP :ADDR=0xf WRITE=1 WDATA=0x4c685e48 STRB=0xf
# UVM_INFO apb_slave_driver.sv(46) @ 6105: uvm_test_top.env.act_agent.drv [DRV_ACCESS] ACCESS : ADDR=0xf WRITE=1
# UVM_INFO apb_slave_active_monitor.sv(43) @ 6125: uvm_test_top.env.act_agent.mon_active [ACT_MON_SETUP] SETUP : ADDR=0xf WRITE=1 STRB=0xf WDATA=0x4c685e48
# UVM_INFO apb_slave_scoreboard.sv(112) @ 6125: uvm_test_top.env.scb [SCBD] WRITE OK: ADDR=0xf WDATA=0x4c685e48 STRB=0xf NEW_MEM=0x4c685e48
# UVM_INFO apb_slave_driver.sv(38) @ 6165: uvm_test_top.env.act_agent.drv [DRV_SETUP] SETUP :ADDR=0xf WRITE=0 WDATA=0x914c197b STRB=0x4
# UVM_INFO apb_slave_driver.sv(46) @ 6175: uvm_test_top.env.act_agent.drv [DRV_ACCESS] ACCESS : ADDR=0xf WRITE=0
# UVM_INFO apb_slave_active_monitor.sv(43) @ 6195: uvm_test_top.env.act_agent.mon_active [ACT_MON_SETUP] SETUP : ADDR=0xf WRITE=0 STRB=0x4 WDATA=0x0
# UVM_INFO apb_slave_scoreboard.sv(148) @ 6195: uvm_test_top.env.scb [SCBD] READ PASS: ADDR=0xf ACT=0x4c685e48 EXP=0x4c685e48
# UVM_INFO apb_slave_driver.sv(38) @ 6235: uvm_test_top.env.act_agent.drv [DRV_SETUP] SETUP :ADDR=0x10 WRITE=1 WDATA=0xbdf3a622 STRB=0xf
# UVM_INFO apb_slave_driver.sv(46) @ 6245: uvm_test_top.env.act_agent.drv [DRV_ACCESS] ACCESS : ADDR=0x10 WRITE=1
# UVM_INFO apb_slave_active_monitor.sv(43) @ 6265: uvm_test_top.env.act_agent.mon_active [ACT_MON_SETUP] SETUP : ADDR=0x10 WRITE=1 STRB=0xf WDATA=0xbdf3a622
# UVM_INFO apb_slave_scoreboard.sv(112) @ 6265: uvm_test_top.env.scb [SCBD] WRITE OK: ADDR=0x10 WDATA=0xbdf3a622 STRB=0xf NEW_MEM=0xbdf3a622
# UVM_INFO apb_slave_driver.sv(38) @ 6305: uvm_test_top.env.act_agent.drv [DRV_SETUP] SETUP :ADDR=0x10 WRITE=0 WDATA=0x8954a47a STRB=0x2
# UVM_INFO apb_slave_driver.sv(46) @ 6315: uvm_test_top.env.act_agent.drv [DRV_ACCESS] ACCESS : ADDR=0x10 WRITE=0
# UVM_INFO apb_slave_active_monitor.sv(43) @ 6335: uvm_test_top.env.act_agent.mon_active [ACT_MON_SETUP] SETUP : ADDR=0x10 WRITE=0 STRB=0x2 WDATA=0x0
# UVM_INFO apb_slave_scoreboard.sv(148) @ 6335: uvm_test_top.env.scb [SCBD] READ PASS: ADDR=0x10 ACT=0xbdf3a622 EXP=0xbdf3a622
# UVM_INFO apb_slave_driver.sv(38) @ 6375: uvm_test_top.env.act_agent.drv [DRV_SETUP] SETUP :ADDR=0x11 WRITE=1 WDATA=0x744aa940 STRB=0xf
# UVM_INFO apb_slave_driver.sv(46) @ 6385: uvm_test_top.env.act_agent.drv [DRV_ACCESS] ACCESS : ADDR=0x11 WRITE=1
# UVM_INFO apb_slave_active_monitor.sv(43) @ 6405: uvm_test_top.env.act_agent.mon_active [ACT_MON_SETUP] SETUP : ADDR=0x11 WRITE=1 STRB=0xf WDATA=0x744aa940
# UVM_INFO apb_slave_scoreboard.sv(112) @ 6405: uvm_test_top.env.scb [SCBD] WRITE OK: ADDR=0x11 WDATA=0x744aa940 STRB=0xf NEW_MEM=0x744aa940
# UVM_INFO apb_slave_driver.sv(38) @ 6445: uvm_test_top.env.act_agent.drv [DRV_SETUP] SETUP :ADDR=0x11 WRITE=0 WDATA=0x8bfc52ab STRB=0x2
# UVM_INFO apb_slave_driver.sv(46) @ 6455: uvm_test_top.env.act_agent.drv [DRV_ACCESS] ACCESS : ADDR=0x11 WRITE=0
# UVM_INFO apb_slave_active_monitor.sv(43) @ 6475: uvm_test_top.env.act_agent.mon_active [ACT_MON_SETUP] SETUP : ADDR=0x11 WRITE=0 STRB=0x2 WDATA=0x0
# UVM_INFO apb_slave_scoreboard.sv(148) @ 6475: uvm_test_top.env.scb [SCBD] READ PASS: ADDR=0x11 ACT=0x744aa940 EXP=0x744aa940
# UVM_INFO apb_slave_driver.sv(38) @ 6515: uvm_test_top.env.act_agent.drv [DRV_SETUP] SETUP :ADDR=0x12 WRITE=1 WDATA=0x727063a6 STRB=0xf
# UVM_INFO apb_slave_driver.sv(46) @ 6525: uvm_test_top.env.act_agent.drv [DRV_ACCESS] ACCESS : ADDR=0x12 WRITE=1
# UVM_INFO apb_slave_active_monitor.sv(43) @ 6545: uvm_test_top.env.act_agent.mon_active [ACT_MON_SETUP] SETUP : ADDR=0x12 WRITE=1 STRB=0xf WDATA=0x727063a6
# UVM_INFO apb_slave_scoreboard.sv(112) @ 6545: uvm_test_top.env.scb [SCBD] WRITE OK: ADDR=0x12 WDATA=0x727063a6 STRB=0xf NEW_MEM=0x727063a6
# UVM_INFO apb_slave_driver.sv(38) @ 6585: uvm_test_top.env.act_agent.drv [DRV_SETUP] SETUP :ADDR=0x12 WRITE=0 WDATA=0x1f1e4998 STRB=0xa
# UVM_INFO apb_slave_driver.sv(46) @ 6595: uvm_test_top.env.act_agent.drv [DRV_ACCESS] ACCESS : ADDR=0x12 WRITE=0
# UVM_INFO apb_slave_active_monitor.sv(43) @ 6615: uvm_test_top.env.act_agent.mon_active [ACT_MON_SETUP] SETUP : ADDR=0x12 WRITE=0 STRB=0xa WDATA=0x0
# UVM_INFO apb_slave_scoreboard.sv(148) @ 6615: uvm_test_top.env.scb [SCBD] READ PASS: ADDR=0x12 ACT=0x727063a6 EXP=0x727063a6
# UVM_INFO apb_slave_driver.sv(38) @ 6655: uvm_test_top.env.act_agent.drv [DRV_SETUP] SETUP :ADDR=0x13 WRITE=1 WDATA=0x3e655904 STRB=0xf
# UVM_INFO apb_slave_driver.sv(46) @ 6665: uvm_test_top.env.act_agent.drv [DRV_ACCESS] ACCESS : ADDR=0x13 WRITE=1
# UVM_INFO apb_slave_active_monitor.sv(43) @ 6685: uvm_test_top.env.act_agent.mon_active [ACT_MON_SETUP] SETUP : ADDR=0x13 WRITE=1 STRB=0xf WDATA=0x3e655904
# UVM_INFO apb_slave_scoreboard.sv(112) @ 6685: uvm_test_top.env.scb [SCBD] WRITE OK: ADDR=0x13 WDATA=0x3e655904 STRB=0xf NEW_MEM=0x3e655904
# UVM_INFO apb_slave_driver.sv(38) @ 6725: uvm_test_top.env.act_agent.drv [DRV_SETUP] SETUP :ADDR=0x13 WRITE=0 WDATA=0x8e9fe05c STRB=0x4
# UVM_INFO apb_slave_driver.sv(46) @ 6735: uvm_test_top.env.act_agent.drv [DRV_ACCESS] ACCESS : ADDR=0x13 WRITE=0
# UVM_INFO apb_slave_active_monitor.sv(43) @ 6755: uvm_test_top.env.act_agent.mon_active [ACT_MON_SETUP] SETUP : ADDR=0x13 WRITE=0 STRB=0x4 WDATA=0x0
# UVM_INFO apb_slave_scoreboard.sv(148) @ 6755: uvm_test_top.env.scb [SCBD] READ PASS: ADDR=0x13 ACT=0x3e655904 EXP=0x3e655904
# UVM_INFO apb_slave_driver.sv(38) @ 6795: uvm_test_top.env.act_agent.drv [DRV_SETUP] SETUP :ADDR=0x14 WRITE=1 WDATA=0x27a23ce4 STRB=0xf
# UVM_INFO apb_slave_driver.sv(46) @ 6805: uvm_test_top.env.act_agent.drv [DRV_ACCESS] ACCESS : ADDR=0x14 WRITE=1
# UVM_INFO apb_slave_active_monitor.sv(43) @ 6825: uvm_test_top.env.act_agent.mon_active [ACT_MON_SETUP] SETUP : ADDR=0x14 WRITE=1 STRB=0xf WDATA=0x27a23ce4
# UVM_INFO apb_slave_scoreboard.sv(112) @ 6825: uvm_test_top.env.scb [SCBD] WRITE OK: ADDR=0x14 WDATA=0x27a23ce4 STRB=0xf NEW_MEM=0x27a23ce4
# UVM_INFO apb_slave_driver.sv(38) @ 6865: uvm_test_top.env.act_agent.drv [DRV_SETUP] SETUP :ADDR=0x14 WRITE=0 WDATA=0x61bf0d24 STRB=0x1
# UVM_INFO apb_slave_driver.sv(46) @ 6875: uvm_test_top.env.act_agent.drv [DRV_ACCESS] ACCESS : ADDR=0x14 WRITE=0
# UVM_INFO apb_slave_active_monitor.sv(43) @ 6895: uvm_test_top.env.act_agent.mon_active [ACT_MON_SETUP] SETUP : ADDR=0x14 WRITE=0 STRB=0x1 WDATA=0x0
# UVM_INFO apb_slave_scoreboard.sv(148) @ 6895: uvm_test_top.env.scb [SCBD] READ PASS: ADDR=0x14 ACT=0x27a23ce4 EXP=0x27a23ce4
# UVM_INFO apb_slave_driver.sv(38) @ 6935: uvm_test_top.env.act_agent.drv [DRV_SETUP] SETUP :ADDR=0x15 WRITE=1 WDATA=0xc73750e6 STRB=0xf
# UVM_INFO apb_slave_driver.sv(46) @ 6945: uvm_test_top.env.act_agent.drv [DRV_ACCESS] ACCESS : ADDR=0x15 WRITE=1
# UVM_INFO apb_slave_active_monitor.sv(43) @ 6965: uvm_test_top.env.act_agent.mon_active [ACT_MON_SETUP] SETUP : ADDR=0x15 WRITE=1 STRB=0xf WDATA=0xc73750e6
# UVM_INFO apb_slave_scoreboard.sv(112) @ 6965: uvm_test_top.env.scb [SCBD] WRITE OK: ADDR=0x15 WDATA=0xc73750e6 STRB=0xf NEW_MEM=0xc73750e6
# UVM_INFO apb_slave_driver.sv(38) @ 7005: uvm_test_top.env.act_agent.drv [DRV_SETUP] SETUP :ADDR=0x15 WRITE=0 WDATA=0xe07e0c30 STRB=0x8
# UVM_INFO apb_slave_driver.sv(46) @ 7015: uvm_test_top.env.act_agent.drv [DRV_ACCESS] ACCESS : ADDR=0x15 WRITE=0
# UVM_INFO apb_slave_active_monitor.sv(43) @ 7035: uvm_test_top.env.act_agent.mon_active [ACT_MON_SETUP] SETUP : ADDR=0x15 WRITE=0 STRB=0x8 WDATA=0x0
# UVM_INFO apb_slave_scoreboard.sv(148) @ 7035: uvm_test_top.env.scb [SCBD] READ PASS: ADDR=0x15 ACT=0xc73750e6 EXP=0xc73750e6
# UVM_INFO apb_slave_driver.sv(38) @ 7075: uvm_test_top.env.act_agent.drv [DRV_SETUP] SETUP :ADDR=0x16 WRITE=1 WDATA=0xc54b87af STRB=0xf
# UVM_INFO apb_slave_driver.sv(46) @ 7085: uvm_test_top.env.act_agent.drv [DRV_ACCESS] ACCESS : ADDR=0x16 WRITE=1
# UVM_INFO apb_slave_active_monitor.sv(43) @ 7105: uvm_test_top.env.act_agent.mon_active [ACT_MON_SETUP] SETUP : ADDR=0x16 WRITE=1 STRB=0xf WDATA=0xc54b87af
# UVM_INFO apb_slave_scoreboard.sv(112) @ 7105: uvm_test_top.env.scb [SCBD] WRITE OK: ADDR=0x16 WDATA=0xc54b87af STRB=0xf NEW_MEM=0xc54b87af
# UVM_INFO apb_slave_driver.sv(38) @ 7145: uvm_test_top.env.act_agent.drv [DRV_SETUP] SETUP :ADDR=0x16 WRITE=0 WDATA=0x2cba7df3 STRB=0xf
# UVM_INFO apb_slave_driver.sv(46) @ 7155: uvm_test_top.env.act_agent.drv [DRV_ACCESS] ACCESS : ADDR=0x16 WRITE=0
# UVM_INFO apb_slave_active_monitor.sv(43) @ 7175: uvm_test_top.env.act_agent.mon_active [ACT_MON_SETUP] SETUP : ADDR=0x16 WRITE=0 STRB=0xf WDATA=0x0
# UVM_INFO apb_slave_scoreboard.sv(148) @ 7175: uvm_test_top.env.scb [SCBD] READ PASS: ADDR=0x16 ACT=0xc54b87af EXP=0xc54b87af
# UVM_INFO apb_slave_driver.sv(38) @ 7215: uvm_test_top.env.act_agent.drv [DRV_SETUP] SETUP :ADDR=0x17 WRITE=1 WDATA=0x8bd81528 STRB=0xf
# UVM_INFO apb_slave_driver.sv(46) @ 7225: uvm_test_top.env.act_agent.drv [DRV_ACCESS] ACCESS : ADDR=0x17 WRITE=1
# UVM_INFO apb_slave_active_monitor.sv(43) @ 7245: uvm_test_top.env.act_agent.mon_active [ACT_MON_SETUP] SETUP : ADDR=0x17 WRITE=1 STRB=0xf WDATA=0x8bd81528
# UVM_INFO apb_slave_scoreboard.sv(112) @ 7245: uvm_test_top.env.scb [SCBD] WRITE OK: ADDR=0x17 WDATA=0x8bd81528 STRB=0xf NEW_MEM=0x8bd81528
# UVM_INFO apb_slave_driver.sv(38) @ 7285: uvm_test_top.env.act_agent.drv [DRV_SETUP] SETUP :ADDR=0x17 WRITE=0 WDATA=0x75506260 STRB=0xe
# UVM_INFO apb_slave_driver.sv(46) @ 7295: uvm_test_top.env.act_agent.drv [DRV_ACCESS] ACCESS : ADDR=0x17 WRITE=0
# UVM_INFO apb_slave_active_monitor.sv(43) @ 7315: uvm_test_top.env.act_agent.mon_active [ACT_MON_SETUP] SETUP : ADDR=0x17 WRITE=0 STRB=0xe WDATA=0x0
# UVM_INFO apb_slave_scoreboard.sv(148) @ 7315: uvm_test_top.env.scb [SCBD] READ PASS: ADDR=0x17 ACT=0x8bd81528 EXP=0x8bd81528
# UVM_INFO apb_slave_driver.sv(38) @ 7355: uvm_test_top.env.act_agent.drv [DRV_SETUP] SETUP :ADDR=0x18 WRITE=1 WDATA=0x657bca10 STRB=0xf
# UVM_INFO apb_slave_driver.sv(46) @ 7365: uvm_test_top.env.act_agent.drv [DRV_ACCESS] ACCESS : ADDR=0x18 WRITE=1
# UVM_INFO apb_slave_active_monitor.sv(43) @ 7385: uvm_test_top.env.act_agent.mon_active [ACT_MON_SETUP] SETUP : ADDR=0x18 WRITE=1 STRB=0xf WDATA=0x657bca10
# UVM_INFO apb_slave_scoreboard.sv(112) @ 7385: uvm_test_top.env.scb [SCBD] WRITE OK: ADDR=0x18 WDATA=0x657bca10 STRB=0xf NEW_MEM=0x657bca10
# UVM_INFO apb_slave_driver.sv(38) @ 7425: uvm_test_top.env.act_agent.drv [DRV_SETUP] SETUP :ADDR=0x18 WRITE=0 WDATA=0xdeba59 STRB=0x6
# UVM_INFO apb_slave_driver.sv(46) @ 7435: uvm_test_top.env.act_agent.drv [DRV_ACCESS] ACCESS : ADDR=0x18 WRITE=0
# UVM_INFO apb_slave_active_monitor.sv(43) @ 7455: uvm_test_top.env.act_agent.mon_active [ACT_MON_SETUP] SETUP : ADDR=0x18 WRITE=0 STRB=0x6 WDATA=0x0
# UVM_INFO apb_slave_scoreboard.sv(148) @ 7455: uvm_test_top.env.scb [SCBD] READ PASS: ADDR=0x18 ACT=0x657bca10 EXP=0x657bca10
# UVM_INFO apb_slave_driver.sv(38) @ 7495: uvm_test_top.env.act_agent.drv [DRV_SETUP] SETUP :ADDR=0x19 WRITE=1 WDATA=0x22a632ff STRB=0xf
# UVM_INFO apb_slave_driver.sv(46) @ 7505: uvm_test_top.env.act_agent.drv [DRV_ACCESS] ACCESS : ADDR=0x19 WRITE=1
# UVM_INFO apb_slave_active_monitor.sv(43) @ 7525: uvm_test_top.env.act_agent.mon_active [ACT_MON_SETUP] SETUP : ADDR=0x19 WRITE=1 STRB=0xf WDATA=0x22a632ff
# UVM_INFO apb_slave_scoreboard.sv(112) @ 7525: uvm_test_top.env.scb [SCBD] WRITE OK: ADDR=0x19 WDATA=0x22a632ff STRB=0xf NEW_MEM=0x22a632ff
# UVM_INFO apb_slave_driver.sv(38) @ 7565: uvm_test_top.env.act_agent.drv [DRV_SETUP] SETUP :ADDR=0x19 WRITE=0 WDATA=0xfd3c69ae STRB=0x8
# UVM_INFO apb_slave_driver.sv(46) @ 7575: uvm_test_top.env.act_agent.drv [DRV_ACCESS] ACCESS : ADDR=0x19 WRITE=0
# UVM_INFO apb_slave_active_monitor.sv(43) @ 7595: uvm_test_top.env.act_agent.mon_active [ACT_MON_SETUP] SETUP : ADDR=0x19 WRITE=0 STRB=0x8 WDATA=0x0
# UVM_INFO apb_slave_scoreboard.sv(148) @ 7595: uvm_test_top.env.scb [SCBD] READ PASS: ADDR=0x19 ACT=0x22a632ff EXP=0x22a632ff
# UVM_INFO apb_slave_driver.sv(38) @ 7635: uvm_test_top.env.act_agent.drv [DRV_SETUP] SETUP :ADDR=0x1a WRITE=1 WDATA=0x71912933 STRB=0xf
# UVM_INFO apb_slave_driver.sv(46) @ 7645: uvm_test_top.env.act_agent.drv [DRV_ACCESS] ACCESS : ADDR=0x1a WRITE=1
# UVM_INFO apb_slave_active_monitor.sv(43) @ 7665: uvm_test_top.env.act_agent.mon_active [ACT_MON_SETUP] SETUP : ADDR=0x1a WRITE=1 STRB=0xf WDATA=0x71912933
# UVM_INFO apb_slave_scoreboard.sv(112) @ 7665: uvm_test_top.env.scb [SCBD] WRITE OK: ADDR=0x1a WDATA=0x71912933 STRB=0xf NEW_MEM=0x71912933
# UVM_INFO apb_slave_driver.sv(38) @ 7705: uvm_test_top.env.act_agent.drv [DRV_SETUP] SETUP :ADDR=0x1a WRITE=0 WDATA=0x70c55e35 STRB=0xc
# UVM_INFO apb_slave_driver.sv(46) @ 7715: uvm_test_top.env.act_agent.drv [DRV_ACCESS] ACCESS : ADDR=0x1a WRITE=0
# UVM_INFO apb_slave_active_monitor.sv(43) @ 7735: uvm_test_top.env.act_agent.mon_active [ACT_MON_SETUP] SETUP : ADDR=0x1a WRITE=0 STRB=0xc WDATA=0x0
# UVM_INFO apb_slave_scoreboard.sv(148) @ 7735: uvm_test_top.env.scb [SCBD] READ PASS: ADDR=0x1a ACT=0x71912933 EXP=0x71912933
# UVM_INFO apb_slave_driver.sv(38) @ 7775: uvm_test_top.env.act_agent.drv [DRV_SETUP] SETUP :ADDR=0x1b WRITE=1 WDATA=0x41448202 STRB=0xf
# UVM_INFO apb_slave_driver.sv(46) @ 7785: uvm_test_top.env.act_agent.drv [DRV_ACCESS] ACCESS : ADDR=0x1b WRITE=1
# UVM_INFO apb_slave_active_monitor.sv(43) @ 7805: uvm_test_top.env.act_agent.mon_active [ACT_MON_SETUP] SETUP : ADDR=0x1b WRITE=1 STRB=0xf WDATA=0x41448202
# UVM_INFO apb_slave_scoreboard.sv(112) @ 7805: uvm_test_top.env.scb [SCBD] WRITE OK: ADDR=0x1b WDATA=0x41448202 STRB=0xf NEW_MEM=0x41448202
# UVM_INFO apb_slave_driver.sv(38) @ 7845: uvm_test_top.env.act_agent.drv [DRV_SETUP] SETUP :ADDR=0x1b WRITE=0 WDATA=0xa17fb6a5 STRB=0x5
# UVM_INFO apb_slave_driver.sv(46) @ 7855: uvm_test_top.env.act_agent.drv [DRV_ACCESS] ACCESS : ADDR=0x1b WRITE=0
# UVM_INFO apb_slave_active_monitor.sv(43) @ 7875: uvm_test_top.env.act_agent.mon_active [ACT_MON_SETUP] SETUP : ADDR=0x1b WRITE=0 STRB=0x5 WDATA=0x0
# UVM_INFO apb_slave_scoreboard.sv(148) @ 7875: uvm_test_top.env.scb [SCBD] READ PASS: ADDR=0x1b ACT=0x41448202 EXP=0x41448202
# UVM_INFO apb_slave_driver.sv(38) @ 7915: uvm_test_top.env.act_agent.drv [DRV_SETUP] SETUP :ADDR=0x1c WRITE=1 WDATA=0x9cba4dcb STRB=0xf
# UVM_INFO apb_slave_driver.sv(46) @ 7925: uvm_test_top.env.act_agent.drv [DRV_ACCESS] ACCESS : ADDR=0x1c WRITE=1
# UVM_INFO apb_slave_active_monitor.sv(43) @ 7945: uvm_test_top.env.act_agent.mon_active [ACT_MON_SETUP] SETUP : ADDR=0x1c WRITE=1 STRB=0xf WDATA=0x9cba4dcb
# UVM_INFO apb_slave_scoreboard.sv(112) @ 7945: uvm_test_top.env.scb [SCBD] WRITE OK: ADDR=0x1c WDATA=0x9cba4dcb STRB=0xf NEW_MEM=0x9cba4dcb
# UVM_INFO apb_slave_driver.sv(38) @ 7985: uvm_test_top.env.act_agent.drv [DRV_SETUP] SETUP :ADDR=0x1c WRITE=0 WDATA=0x71d51a00 STRB=0xc
# UVM_INFO apb_slave_driver.sv(46) @ 7995: uvm_test_top.env.act_agent.drv [DRV_ACCESS] ACCESS : ADDR=0x1c WRITE=0
# UVM_INFO apb_slave_active_monitor.sv(43) @ 8015: uvm_test_top.env.act_agent.mon_active [ACT_MON_SETUP] SETUP : ADDR=0x1c WRITE=0 STRB=0xc WDATA=0x0
# UVM_INFO apb_slave_scoreboard.sv(148) @ 8015: uvm_test_top.env.scb [SCBD] READ PASS: ADDR=0x1c ACT=0x9cba4dcb EXP=0x9cba4dcb
# UVM_INFO apb_slave_driver.sv(38) @ 8055: uvm_test_top.env.act_agent.drv [DRV_SETUP] SETUP :ADDR=0x1d WRITE=1 WDATA=0xb89232bf STRB=0xf
# UVM_INFO apb_slave_driver.sv(46) @ 8065: uvm_test_top.env.act_agent.drv [DRV_ACCESS] ACCESS : ADDR=0x1d WRITE=1
# UVM_INFO apb_slave_active_monitor.sv(43) @ 8085: uvm_test_top.env.act_agent.mon_active [ACT_MON_SETUP] SETUP : ADDR=0x1d WRITE=1 STRB=0xf WDATA=0xb89232bf
# UVM_INFO apb_slave_scoreboard.sv(112) @ 8085: uvm_test_top.env.scb [SCBD] WRITE OK: ADDR=0x1d WDATA=0xb89232bf STRB=0xf NEW_MEM=0xb89232bf
# UVM_INFO apb_slave_driver.sv(38) @ 8125: uvm_test_top.env.act_agent.drv [DRV_SETUP] SETUP :ADDR=0x1d WRITE=0 WDATA=0x4e399cc9 STRB=0x5
# UVM_INFO apb_slave_driver.sv(46) @ 8135: uvm_test_top.env.act_agent.drv [DRV_ACCESS] ACCESS : ADDR=0x1d WRITE=0
# UVM_INFO apb_slave_active_monitor.sv(43) @ 8155: uvm_test_top.env.act_agent.mon_active [ACT_MON_SETUP] SETUP : ADDR=0x1d WRITE=0 STRB=0x5 WDATA=0x0
# UVM_INFO apb_slave_scoreboard.sv(148) @ 8155: uvm_test_top.env.scb [SCBD] READ PASS: ADDR=0x1d ACT=0xb89232bf EXP=0xb89232bf
# UVM_INFO apb_slave_driver.sv(38) @ 8195: uvm_test_top.env.act_agent.drv [DRV_SETUP] SETUP :ADDR=0x1e WRITE=1 WDATA=0xcb75e88a STRB=0xf
# UVM_INFO apb_slave_driver.sv(46) @ 8205: uvm_test_top.env.act_agent.drv [DRV_ACCESS] ACCESS : ADDR=0x1e WRITE=1
# UVM_INFO apb_slave_active_monitor.sv(43) @ 8225: uvm_test_top.env.act_agent.mon_active [ACT_MON_SETUP] SETUP : ADDR=0x1e WRITE=1 STRB=0xf WDATA=0xcb75e88a
# UVM_INFO apb_slave_scoreboard.sv(112) @ 8225: uvm_test_top.env.scb [SCBD] WRITE OK: ADDR=0x1e WDATA=0xcb75e88a STRB=0xf NEW_MEM=0xcb75e88a
# UVM_INFO apb_slave_driver.sv(38) @ 8265: uvm_test_top.env.act_agent.drv [DRV_SETUP] SETUP :ADDR=0x1e WRITE=0 WDATA=0x81462c07 STRB=0xd
# UVM_INFO apb_slave_driver.sv(46) @ 8275: uvm_test_top.env.act_agent.drv [DRV_ACCESS] ACCESS : ADDR=0x1e WRITE=0
# UVM_INFO apb_slave_active_monitor.sv(43) @ 8295: uvm_test_top.env.act_agent.mon_active [ACT_MON_SETUP] SETUP : ADDR=0x1e WRITE=0 STRB=0xd WDATA=0x0
# UVM_INFO apb_slave_scoreboard.sv(148) @ 8295: uvm_test_top.env.scb [SCBD] READ PASS: ADDR=0x1e ACT=0xcb75e88a EXP=0xcb75e88a
# UVM_INFO apb_slave_driver.sv(38) @ 8335: uvm_test_top.env.act_agent.drv [DRV_SETUP] SETUP :ADDR=0x1f WRITE=1 WDATA=0x7c37197a STRB=0xf
# UVM_INFO apb_slave_driver.sv(46) @ 8345: uvm_test_top.env.act_agent.drv [DRV_ACCESS] ACCESS : ADDR=0x1f WRITE=1
# UVM_INFO apb_slave_active_monitor.sv(43) @ 8365: uvm_test_top.env.act_agent.mon_active [ACT_MON_SETUP] SETUP : ADDR=0x1f WRITE=1 STRB=0xf WDATA=0x7c37197a
# UVM_INFO apb_slave_scoreboard.sv(112) @ 8365: uvm_test_top.env.scb [SCBD] WRITE OK: ADDR=0x1f WDATA=0x7c37197a STRB=0xf NEW_MEM=0x7c37197a
# UVM_INFO apb_slave_driver.sv(38) @ 8405: uvm_test_top.env.act_agent.drv [DRV_SETUP] SETUP :ADDR=0x1f WRITE=0 WDATA=0xeebbf3c2 STRB=0x2
# UVM_INFO apb_slave_driver.sv(46) @ 8415: uvm_test_top.env.act_agent.drv [DRV_ACCESS] ACCESS : ADDR=0x1f WRITE=0
# UVM_INFO apb_slave_active_monitor.sv(43) @ 8435: uvm_test_top.env.act_agent.mon_active [ACT_MON_SETUP] SETUP : ADDR=0x1f WRITE=0 STRB=0x2 WDATA=0x0
# UVM_INFO apb_slave_scoreboard.sv(148) @ 8435: uvm_test_top.env.scb [SCBD] READ PASS: ADDR=0x1f ACT=0x7c37197a EXP=0x7c37197a
# UVM_INFO apb_slave_driver.sv(38) @ 8475: uvm_test_top.env.act_agent.drv [DRV_SETUP] SETUP :ADDR=0x20 WRITE=1 WDATA=0x564d4226 STRB=0xf
# UVM_INFO apb_slave_driver.sv(46) @ 8485: uvm_test_top.env.act_agent.drv [DRV_ACCESS] ACCESS : ADDR=0x20 WRITE=1
# UVM_INFO apb_slave_active_monitor.sv(43) @ 8505: uvm_test_top.env.act_agent.mon_active [ACT_MON_SETUP] SETUP : ADDR=0x20 WRITE=1 STRB=0xf WDATA=0x564d4226
# UVM_INFO apb_slave_scoreboard.sv(112) @ 8505: uvm_test_top.env.scb [SCBD] WRITE OK: ADDR=0x20 WDATA=0x564d4226 STRB=0xf NEW_MEM=0x564d4226
# UVM_INFO apb_slave_driver.sv(38) @ 8545: uvm_test_top.env.act_agent.drv [DRV_SETUP] SETUP :ADDR=0x20 WRITE=0 WDATA=0xf0431a72 STRB=0x7
# UVM_INFO apb_slave_driver.sv(46) @ 8555: uvm_test_top.env.act_agent.drv [DRV_ACCESS] ACCESS : ADDR=0x20 WRITE=0
# UVM_INFO apb_slave_active_monitor.sv(43) @ 8575: uvm_test_top.env.act_agent.mon_active [ACT_MON_SETUP] SETUP : ADDR=0x20 WRITE=0 STRB=0x7 WDATA=0x0
# UVM_INFO apb_slave_scoreboard.sv(148) @ 8575: uvm_test_top.env.scb [SCBD] READ PASS: ADDR=0x20 ACT=0x564d4226 EXP=0x564d4226
# UVM_INFO apb_slave_driver.sv(38) @ 8615: uvm_test_top.env.act_agent.drv [DRV_SETUP] SETUP :ADDR=0x21 WRITE=1 WDATA=0x419b478e STRB=0xf
# UVM_INFO apb_slave_driver.sv(46) @ 8625: uvm_test_top.env.act_agent.drv [DRV_ACCESS] ACCESS : ADDR=0x21 WRITE=1
# UVM_INFO apb_slave_active_monitor.sv(43) @ 8645: uvm_test_top.env.act_agent.mon_active [ACT_MON_SETUP] SETUP : ADDR=0x21 WRITE=1 STRB=0xf WDATA=0x419b478e
# UVM_INFO apb_slave_scoreboard.sv(112) @ 8645: uvm_test_top.env.scb [SCBD] WRITE OK: ADDR=0x21 WDATA=0x419b478e STRB=0xf NEW_MEM=0x419b478e
# UVM_INFO apb_slave_driver.sv(38) @ 8685: uvm_test_top.env.act_agent.drv [DRV_SETUP] SETUP :ADDR=0x21 WRITE=0 WDATA=0xd26f6f18 STRB=0xa
# UVM_INFO apb_slave_driver.sv(46) @ 8695: uvm_test_top.env.act_agent.drv [DRV_ACCESS] ACCESS : ADDR=0x21 WRITE=0
# UVM_INFO apb_slave_active_monitor.sv(43) @ 8715: uvm_test_top.env.act_agent.mon_active [ACT_MON_SETUP] SETUP : ADDR=0x21 WRITE=0 STRB=0xa WDATA=0x0
# UVM_INFO apb_slave_scoreboard.sv(148) @ 8715: uvm_test_top.env.scb [SCBD] READ PASS: ADDR=0x21 ACT=0x419b478e EXP=0x419b478e
# UVM_INFO apb_slave_driver.sv(38) @ 8755: uvm_test_top.env.act_agent.drv [DRV_SETUP] SETUP :ADDR=0x22 WRITE=1 WDATA=0x8ef8c660 STRB=0xf
# UVM_INFO apb_slave_driver.sv(46) @ 8765: uvm_test_top.env.act_agent.drv [DRV_ACCESS] ACCESS : ADDR=0x22 WRITE=1
# UVM_INFO apb_slave_active_monitor.sv(43) @ 8785: uvm_test_top.env.act_agent.mon_active [ACT_MON_SETUP] SETUP : ADDR=0x22 WRITE=1 STRB=0xf WDATA=0x8ef8c660
# UVM_INFO apb_slave_scoreboard.sv(112) @ 8785: uvm_test_top.env.scb [SCBD] WRITE OK: ADDR=0x22 WDATA=0x8ef8c660 STRB=0xf NEW_MEM=0x8ef8c660
# UVM_INFO apb_slave_driver.sv(38) @ 8825: uvm_test_top.env.act_agent.drv [DRV_SETUP] SETUP :ADDR=0x22 WRITE=0 WDATA=0xe4916127 STRB=0x9
# UVM_INFO apb_slave_driver.sv(46) @ 8835: uvm_test_top.env.act_agent.drv [DRV_ACCESS] ACCESS : ADDR=0x22 WRITE=0
# UVM_INFO apb_slave_active_monitor.sv(43) @ 8855: uvm_test_top.env.act_agent.mon_active [ACT_MON_SETUP] SETUP : ADDR=0x22 WRITE=0 STRB=0x9 WDATA=0x0
# UVM_INFO apb_slave_scoreboard.sv(148) @ 8855: uvm_test_top.env.scb [SCBD] READ PASS: ADDR=0x22 ACT=0x8ef8c660 EXP=0x8ef8c660
# UVM_INFO apb_slave_driver.sv(38) @ 8895: uvm_test_top.env.act_agent.drv [DRV_SETUP] SETUP :ADDR=0x23 WRITE=1 WDATA=0x985b7193 STRB=0xf
# UVM_INFO apb_slave_driver.sv(46) @ 8905: uvm_test_top.env.act_agent.drv [DRV_ACCESS] ACCESS : ADDR=0x23 WRITE=1
# UVM_INFO apb_slave_active_monitor.sv(43) @ 8925: uvm_test_top.env.act_agent.mon_active [ACT_MON_SETUP] SETUP : ADDR=0x23 WRITE=1 STRB=0xf WDATA=0x985b7193
# UVM_INFO apb_slave_scoreboard.sv(112) @ 8925: uvm_test_top.env.scb [SCBD] WRITE OK: ADDR=0x23 WDATA=0x985b7193 STRB=0xf NEW_MEM=0x985b7193
# UVM_INFO apb_slave_driver.sv(38) @ 8965: uvm_test_top.env.act_agent.drv [DRV_SETUP] SETUP :ADDR=0x23 WRITE=0 WDATA=0x17b6e776 STRB=0x6
# UVM_INFO apb_slave_driver.sv(46) @ 8975: uvm_test_top.env.act_agent.drv [DRV_ACCESS] ACCESS : ADDR=0x23 WRITE=0
# UVM_INFO apb_slave_active_monitor.sv(43) @ 8995: uvm_test_top.env.act_agent.mon_active [ACT_MON_SETUP] SETUP : ADDR=0x23 WRITE=0 STRB=0x6 WDATA=0x0
# UVM_INFO apb_slave_scoreboard.sv(148) @ 8995: uvm_test_top.env.scb [SCBD] READ PASS: ADDR=0x23 ACT=0x985b7193 EXP=0x985b7193
# UVM_INFO apb_slave_driver.sv(38) @ 9035: uvm_test_top.env.act_agent.drv [DRV_SETUP] SETUP :ADDR=0x24 WRITE=1 WDATA=0xb3111a97 STRB=0xf
# UVM_INFO apb_slave_driver.sv(46) @ 9045: uvm_test_top.env.act_agent.drv [DRV_ACCESS] ACCESS : ADDR=0x24 WRITE=1
# UVM_INFO apb_slave_active_monitor.sv(43) @ 9065: uvm_test_top.env.act_agent.mon_active [ACT_MON_SETUP] SETUP : ADDR=0x24 WRITE=1 STRB=0xf WDATA=0xb3111a97
# UVM_INFO apb_slave_scoreboard.sv(112) @ 9065: uvm_test_top.env.scb [SCBD] WRITE OK: ADDR=0x24 WDATA=0xb3111a97 STRB=0xf NEW_MEM=0xb3111a97
# UVM_INFO apb_slave_driver.sv(38) @ 9105: uvm_test_top.env.act_agent.drv [DRV_SETUP] SETUP :ADDR=0x24 WRITE=0 WDATA=0x6f855bb3 STRB=0xa
# UVM_INFO apb_slave_driver.sv(46) @ 9115: uvm_test_top.env.act_agent.drv [DRV_ACCESS] ACCESS : ADDR=0x24 WRITE=0
# UVM_INFO apb_slave_active_monitor.sv(43) @ 9135: uvm_test_top.env.act_agent.mon_active [ACT_MON_SETUP] SETUP : ADDR=0x24 WRITE=0 STRB=0xa WDATA=0x0
# UVM_INFO apb_slave_scoreboard.sv(148) @ 9135: uvm_test_top.env.scb [SCBD] READ PASS: ADDR=0x24 ACT=0xb3111a97 EXP=0xb3111a97
# UVM_INFO apb_slave_driver.sv(38) @ 9175: uvm_test_top.env.act_agent.drv [DRV_SETUP] SETUP :ADDR=0x25 WRITE=1 WDATA=0x45bb2f2 STRB=0xf
# UVM_INFO apb_slave_driver.sv(46) @ 9185: uvm_test_top.env.act_agent.drv [DRV_ACCESS] ACCESS : ADDR=0x25 WRITE=1
# UVM_INFO apb_slave_active_monitor.sv(43) @ 9205: uvm_test_top.env.act_agent.mon_active [ACT_MON_SETUP] SETUP : ADDR=0x25 WRITE=1 STRB=0xf WDATA=0x45bb2f2
# UVM_INFO apb_slave_scoreboard.sv(112) @ 9205: uvm_test_top.env.scb [SCBD] WRITE OK: ADDR=0x25 WDATA=0x45bb2f2 STRB=0xf NEW_MEM=0x45bb2f2
# UVM_INFO apb_slave_driver.sv(38) @ 9245: uvm_test_top.env.act_agent.drv [DRV_SETUP] SETUP :ADDR=0x25 WRITE=0 WDATA=0x276485ad STRB=0x9
# UVM_INFO apb_slave_driver.sv(46) @ 9255: uvm_test_top.env.act_agent.drv [DRV_ACCESS] ACCESS : ADDR=0x25 WRITE=0
# UVM_INFO apb_slave_active_monitor.sv(43) @ 9275: uvm_test_top.env.act_agent.mon_active [ACT_MON_SETUP] SETUP : ADDR=0x25 WRITE=0 STRB=0x9 WDATA=0x0
# UVM_INFO apb_slave_scoreboard.sv(148) @ 9275: uvm_test_top.env.scb [SCBD] READ PASS: ADDR=0x25 ACT=0x45bb2f2 EXP=0x45bb2f2
# UVM_INFO apb_slave_driver.sv(38) @ 9315: uvm_test_top.env.act_agent.drv [DRV_SETUP] SETUP :ADDR=0x26 WRITE=1 WDATA=0x11b3fdeb STRB=0xf
# UVM_INFO apb_slave_driver.sv(46) @ 9325: uvm_test_top.env.act_agent.drv [DRV_ACCESS] ACCESS : ADDR=0x26 WRITE=1
# UVM_INFO apb_slave_active_monitor.sv(43) @ 9345: uvm_test_top.env.act_agent.mon_active [ACT_MON_SETUP] SETUP : ADDR=0x26 WRITE=1 STRB=0xf WDATA=0x11b3fdeb
# UVM_INFO apb_slave_scoreboard.sv(112) @ 9345: uvm_test_top.env.scb [SCBD] WRITE OK: ADDR=0x26 WDATA=0x11b3fdeb STRB=0xf NEW_MEM=0x11b3fdeb
# UVM_INFO apb_slave_driver.sv(38) @ 9385: uvm_test_top.env.act_agent.drv [DRV_SETUP] SETUP :ADDR=0x26 WRITE=0 WDATA=0x4517c0ed STRB=0x1
# UVM_INFO apb_slave_driver.sv(46) @ 9395: uvm_test_top.env.act_agent.drv [DRV_ACCESS] ACCESS : ADDR=0x26 WRITE=0
# UVM_INFO apb_slave_active_monitor.sv(43) @ 9415: uvm_test_top.env.act_agent.mon_active [ACT_MON_SETUP] SETUP : ADDR=0x26 WRITE=0 STRB=0x1 WDATA=0x0
# UVM_INFO apb_slave_scoreboard.sv(148) @ 9415: uvm_test_top.env.scb [SCBD] READ PASS: ADDR=0x26 ACT=0x11b3fdeb EXP=0x11b3fdeb
# UVM_INFO apb_slave_driver.sv(38) @ 9455: uvm_test_top.env.act_agent.drv [DRV_SETUP] SETUP :ADDR=0x27 WRITE=1 WDATA=0xe6f7180e STRB=0xf
# UVM_INFO apb_slave_driver.sv(46) @ 9465: uvm_test_top.env.act_agent.drv [DRV_ACCESS] ACCESS : ADDR=0x27 WRITE=1
# UVM_INFO apb_slave_active_monitor.sv(43) @ 9485: uvm_test_top.env.act_agent.mon_active [ACT_MON_SETUP] SETUP : ADDR=0x27 WRITE=1 STRB=0xf WDATA=0xe6f7180e
# UVM_INFO apb_slave_scoreboard.sv(112) @ 9485: uvm_test_top.env.scb [SCBD] WRITE OK: ADDR=0x27 WDATA=0xe6f7180e STRB=0xf NEW_MEM=0xe6f7180e
# UVM_INFO apb_slave_driver.sv(38) @ 9525: uvm_test_top.env.act_agent.drv [DRV_SETUP] SETUP :ADDR=0x27 WRITE=0 WDATA=0x3e8e4e82 STRB=0xb
# UVM_INFO apb_slave_driver.sv(46) @ 9535: uvm_test_top.env.act_agent.drv [DRV_ACCESS] ACCESS : ADDR=0x27 WRITE=0
# UVM_INFO apb_slave_active_monitor.sv(43) @ 9555: uvm_test_top.env.act_agent.mon_active [ACT_MON_SETUP] SETUP : ADDR=0x27 WRITE=0 STRB=0xb WDATA=0x0
# UVM_INFO apb_slave_scoreboard.sv(148) @ 9555: uvm_test_top.env.scb [SCBD] READ PASS: ADDR=0x27 ACT=0xe6f7180e EXP=0xe6f7180e
# UVM_INFO apb_slave_driver.sv(38) @ 9595: uvm_test_top.env.act_agent.drv [DRV_SETUP] SETUP :ADDR=0x28 WRITE=1 WDATA=0x60a622e9 STRB=0xf
# UVM_INFO apb_slave_driver.sv(46) @ 9605: uvm_test_top.env.act_agent.drv [DRV_ACCESS] ACCESS : ADDR=0x28 WRITE=1
# UVM_INFO apb_slave_active_monitor.sv(43) @ 9625: uvm_test_top.env.act_agent.mon_active [ACT_MON_SETUP] SETUP : ADDR=0x28 WRITE=1 STRB=0xf WDATA=0x60a622e9
# UVM_INFO apb_slave_scoreboard.sv(112) @ 9625: uvm_test_top.env.scb [SCBD] WRITE OK: ADDR=0x28 WDATA=0x60a622e9 STRB=0xf NEW_MEM=0x60a622e9
# UVM_INFO apb_slave_driver.sv(38) @ 9665: uvm_test_top.env.act_agent.drv [DRV_SETUP] SETUP :ADDR=0x28 WRITE=0 WDATA=0x779d17c2 STRB=0xc
# UVM_INFO apb_slave_driver.sv(46) @ 9675: uvm_test_top.env.act_agent.drv [DRV_ACCESS] ACCESS : ADDR=0x28 WRITE=0
# UVM_INFO apb_slave_active_monitor.sv(43) @ 9695: uvm_test_top.env.act_agent.mon_active [ACT_MON_SETUP] SETUP : ADDR=0x28 WRITE=0 STRB=0xc WDATA=0x0
# UVM_INFO apb_slave_scoreboard.sv(148) @ 9695: uvm_test_top.env.scb [SCBD] READ PASS: ADDR=0x28 ACT=0x60a622e9 EXP=0x60a622e9
# UVM_INFO apb_slave_driver.sv(38) @ 9735: uvm_test_top.env.act_agent.drv [DRV_SETUP] SETUP :ADDR=0x29 WRITE=1 WDATA=0x4575f7d8 STRB=0xf
# UVM_INFO apb_slave_driver.sv(46) @ 9745: uvm_test_top.env.act_agent.drv [DRV_ACCESS] ACCESS : ADDR=0x29 WRITE=1
# UVM_INFO apb_slave_active_monitor.sv(43) @ 9765: uvm_test_top.env.act_agent.mon_active [ACT_MON_SETUP] SETUP : ADDR=0x29 WRITE=1 STRB=0xf WDATA=0x4575f7d8
# UVM_INFO apb_slave_scoreboard.sv(112) @ 9765: uvm_test_top.env.scb [SCBD] WRITE OK: ADDR=0x29 WDATA=0x4575f7d8 STRB=0xf NEW_MEM=0x4575f7d8
# UVM_INFO apb_slave_driver.sv(38) @ 9805: uvm_test_top.env.act_agent.drv [DRV_SETUP] SETUP :ADDR=0x29 WRITE=0 WDATA=0x34fb4764 STRB=0x1
# UVM_INFO apb_slave_driver.sv(46) @ 9815: uvm_test_top.env.act_agent.drv [DRV_ACCESS] ACCESS : ADDR=0x29 WRITE=0
# UVM_INFO apb_slave_active_monitor.sv(43) @ 9835: uvm_test_top.env.act_agent.mon_active [ACT_MON_SETUP] SETUP : ADDR=0x29 WRITE=0 STRB=0x1 WDATA=0x0
# UVM_INFO apb_slave_scoreboard.sv(148) @ 9835: uvm_test_top.env.scb [SCBD] READ PASS: ADDR=0x29 ACT=0x4575f7d8 EXP=0x4575f7d8
# UVM_INFO apb_slave_driver.sv(38) @ 9875: uvm_test_top.env.act_agent.drv [DRV_SETUP] SETUP :ADDR=0x2a WRITE=1 WDATA=0xfde12da6 STRB=0xf
# UVM_INFO apb_slave_driver.sv(46) @ 9885: uvm_test_top.env.act_agent.drv [DRV_ACCESS] ACCESS : ADDR=0x2a WRITE=1
# UVM_INFO apb_slave_active_monitor.sv(43) @ 9905: uvm_test_top.env.act_agent.mon_active [ACT_MON_SETUP] SETUP : ADDR=0x2a WRITE=1 STRB=0xf WDATA=0xfde12da6
# UVM_INFO apb_slave_scoreboard.sv(112) @ 9905: uvm_test_top.env.scb [SCBD] WRITE OK: ADDR=0x2a WDATA=0xfde12da6 STRB=0xf NEW_MEM=0xfde12da6
# UVM_INFO apb_slave_driver.sv(38) @ 9945: uvm_test_top.env.act_agent.drv [DRV_SETUP] SETUP :ADDR=0x2a WRITE=0 WDATA=0x99c9a73c STRB=0x8
# UVM_INFO apb_slave_driver.sv(46) @ 9955: uvm_test_top.env.act_agent.drv [DRV_ACCESS] ACCESS : ADDR=0x2a WRITE=0
# UVM_INFO apb_slave_active_monitor.sv(43) @ 9975: uvm_test_top.env.act_agent.mon_active [ACT_MON_SETUP] SETUP : ADDR=0x2a WRITE=0 STRB=0x8 WDATA=0x0
# UVM_INFO apb_slave_scoreboard.sv(148) @ 9975: uvm_test_top.env.scb [SCBD] READ PASS: ADDR=0x2a ACT=0xfde12da6 EXP=0xfde12da6
# UVM_INFO apb_slave_driver.sv(38) @ 10015: uvm_test_top.env.act_agent.drv [DRV_SETUP] SETUP :ADDR=0x2b WRITE=1 WDATA=0xedd62763 STRB=0xf
# UVM_INFO apb_slave_driver.sv(46) @ 10025: uvm_test_top.env.act_agent.drv [DRV_ACCESS] ACCESS : ADDR=0x2b WRITE=1
# UVM_INFO apb_slave_active_monitor.sv(43) @ 10045: uvm_test_top.env.act_agent.mon_active [ACT_MON_SETUP] SETUP : ADDR=0x2b WRITE=1 STRB=0xf WDATA=0xedd62763
# UVM_INFO apb_slave_scoreboard.sv(112) @ 10045: uvm_test_top.env.scb [SCBD] WRITE OK: ADDR=0x2b WDATA=0xedd62763 STRB=0xf NEW_MEM=0xedd62763
# UVM_INFO apb_slave_driver.sv(38) @ 10085: uvm_test_top.env.act_agent.drv [DRV_SETUP] SETUP :ADDR=0x2b WRITE=0 WDATA=0x8c59e0aa STRB=0x8
# UVM_INFO apb_slave_driver.sv(46) @ 10095: uvm_test_top.env.act_agent.drv [DRV_ACCESS] ACCESS : ADDR=0x2b WRITE=0
# UVM_INFO apb_slave_active_monitor.sv(43) @ 10115: uvm_test_top.env.act_agent.mon_active [ACT_MON_SETUP] SETUP : ADDR=0x2b WRITE=0 STRB=0x8 WDATA=0x0
# UVM_INFO apb_slave_scoreboard.sv(148) @ 10115: uvm_test_top.env.scb [SCBD] READ PASS: ADDR=0x2b ACT=0xedd62763 EXP=0xedd62763
# UVM_INFO apb_slave_driver.sv(38) @ 10155: uvm_test_top.env.act_agent.drv [DRV_SETUP] SETUP :ADDR=0x2c WRITE=1 WDATA=0x664ba258 STRB=0xf
# UVM_INFO apb_slave_driver.sv(46) @ 10165: uvm_test_top.env.act_agent.drv [DRV_ACCESS] ACCESS : ADDR=0x2c WRITE=1
# UVM_INFO apb_slave_active_monitor.sv(43) @ 10185: uvm_test_top.env.act_agent.mon_active [ACT_MON_SETUP] SETUP : ADDR=0x2c WRITE=1 STRB=0xf WDATA=0x664ba258
# UVM_INFO apb_slave_scoreboard.sv(112) @ 10185: uvm_test_top.env.scb [SCBD] WRITE OK: ADDR=0x2c WDATA=0x664ba258 STRB=0xf NEW_MEM=0x664ba258
# UVM_INFO apb_slave_driver.sv(38) @ 10225: uvm_test_top.env.act_agent.drv [DRV_SETUP] SETUP :ADDR=0x2c WRITE=0 WDATA=0x2f98f411 STRB=0x1
# UVM_INFO apb_slave_driver.sv(46) @ 10235: uvm_test_top.env.act_agent.drv [DRV_ACCESS] ACCESS : ADDR=0x2c WRITE=0
# UVM_INFO apb_slave_active_monitor.sv(43) @ 10255: uvm_test_top.env.act_agent.mon_active [ACT_MON_SETUP] SETUP : ADDR=0x2c WRITE=0 STRB=0x1 WDATA=0x0
# UVM_INFO apb_slave_scoreboard.sv(148) @ 10255: uvm_test_top.env.scb [SCBD] READ PASS: ADDR=0x2c ACT=0x664ba258 EXP=0x664ba258
# UVM_INFO apb_slave_driver.sv(38) @ 10295: uvm_test_top.env.act_agent.drv [DRV_SETUP] SETUP :ADDR=0x2d WRITE=1 WDATA=0x92b2fd60 STRB=0xf
# UVM_INFO apb_slave_driver.sv(46) @ 10305: uvm_test_top.env.act_agent.drv [DRV_ACCESS] ACCESS : ADDR=0x2d WRITE=1
# UVM_INFO apb_slave_active_monitor.sv(43) @ 10325: uvm_test_top.env.act_agent.mon_active [ACT_MON_SETUP] SETUP : ADDR=0x2d WRITE=1 STRB=0xf WDATA=0x92b2fd60
# UVM_INFO apb_slave_scoreboard.sv(112) @ 10325: uvm_test_top.env.scb [SCBD] WRITE OK: ADDR=0x2d WDATA=0x92b2fd60 STRB=0xf NEW_MEM=0x92b2fd60
# UVM_INFO apb_slave_driver.sv(38) @ 10365: uvm_test_top.env.act_agent.drv [DRV_SETUP] SETUP :ADDR=0x2d WRITE=0 WDATA=0x7ca75129 STRB=0x1
# UVM_INFO apb_slave_driver.sv(46) @ 10375: uvm_test_top.env.act_agent.drv [DRV_ACCESS] ACCESS : ADDR=0x2d WRITE=0
# UVM_INFO apb_slave_active_monitor.sv(43) @ 10395: uvm_test_top.env.act_agent.mon_active [ACT_MON_SETUP] SETUP : ADDR=0x2d WRITE=0 STRB=0x1 WDATA=0x0
# UVM_INFO apb_slave_scoreboard.sv(148) @ 10395: uvm_test_top.env.scb [SCBD] READ PASS: ADDR=0x2d ACT=0x92b2fd60 EXP=0x92b2fd60
# UVM_INFO apb_slave_driver.sv(38) @ 10435: uvm_test_top.env.act_agent.drv [DRV_SETUP] SETUP :ADDR=0x2e WRITE=1 WDATA=0xb3094c1c STRB=0xf
# UVM_INFO apb_slave_driver.sv(46) @ 10445: uvm_test_top.env.act_agent.drv [DRV_ACCESS] ACCESS : ADDR=0x2e WRITE=1
# UVM_INFO apb_slave_active_monitor.sv(43) @ 10465: uvm_test_top.env.act_agent.mon_active [ACT_MON_SETUP] SETUP : ADDR=0x2e WRITE=1 STRB=0xf WDATA=0xb3094c1c
# UVM_INFO apb_slave_scoreboard.sv(112) @ 10465: uvm_test_top.env.scb [SCBD] WRITE OK: ADDR=0x2e WDATA=0xb3094c1c STRB=0xf NEW_MEM=0xb3094c1c
# UVM_INFO apb_slave_driver.sv(38) @ 10505: uvm_test_top.env.act_agent.drv [DRV_SETUP] SETUP :ADDR=0x2e WRITE=0 WDATA=0x53e5cd77 STRB=0xc
# UVM_INFO apb_slave_driver.sv(46) @ 10515: uvm_test_top.env.act_agent.drv [DRV_ACCESS] ACCESS : ADDR=0x2e WRITE=0
# UVM_INFO apb_slave_active_monitor.sv(43) @ 10535: uvm_test_top.env.act_agent.mon_active [ACT_MON_SETUP] SETUP : ADDR=0x2e WRITE=0 STRB=0xc WDATA=0x0
# UVM_INFO apb_slave_scoreboard.sv(148) @ 10535: uvm_test_top.env.scb [SCBD] READ PASS: ADDR=0x2e ACT=0xb3094c1c EXP=0xb3094c1c
# UVM_INFO apb_slave_driver.sv(38) @ 10575: uvm_test_top.env.act_agent.drv [DRV_SETUP] SETUP :ADDR=0x2f WRITE=1 WDATA=0x887b96c STRB=0xf
# UVM_INFO apb_slave_driver.sv(46) @ 10585: uvm_test_top.env.act_agent.drv [DRV_ACCESS] ACCESS : ADDR=0x2f WRITE=1
# UVM_INFO apb_slave_active_monitor.sv(43) @ 10605: uvm_test_top.env.act_agent.mon_active [ACT_MON_SETUP] SETUP : ADDR=0x2f WRITE=1 STRB=0xf WDATA=0x887b96c
# UVM_INFO apb_slave_scoreboard.sv(112) @ 10605: uvm_test_top.env.scb [SCBD] WRITE OK: ADDR=0x2f WDATA=0x887b96c STRB=0xf NEW_MEM=0x887b96c
# UVM_INFO apb_slave_driver.sv(38) @ 10645: uvm_test_top.env.act_agent.drv [DRV_SETUP] SETUP :ADDR=0x2f WRITE=0 WDATA=0x202081ab STRB=0x8
# UVM_INFO apb_slave_driver.sv(46) @ 10655: uvm_test_top.env.act_agent.drv [DRV_ACCESS] ACCESS : ADDR=0x2f WRITE=0
# UVM_INFO apb_slave_active_monitor.sv(43) @ 10675: uvm_test_top.env.act_agent.mon_active [ACT_MON_SETUP] SETUP : ADDR=0x2f WRITE=0 STRB=0x8 WDATA=0x0
# UVM_INFO apb_slave_scoreboard.sv(148) @ 10675: uvm_test_top.env.scb [SCBD] READ PASS: ADDR=0x2f ACT=0x887b96c EXP=0x887b96c
# UVM_INFO apb_slave_driver.sv(38) @ 10715: uvm_test_top.env.act_agent.drv [DRV_SETUP] SETUP :ADDR=0x30 WRITE=1 WDATA=0x7f8d1c75 STRB=0xf
# UVM_INFO apb_slave_driver.sv(46) @ 10725: uvm_test_top.env.act_agent.drv [DRV_ACCESS] ACCESS : ADDR=0x30 WRITE=1
# UVM_INFO apb_slave_active_monitor.sv(43) @ 10745: uvm_test_top.env.act_agent.mon_active [ACT_MON_SETUP] SETUP : ADDR=0x30 WRITE=1 STRB=0xf WDATA=0x7f8d1c75
# UVM_INFO apb_slave_scoreboard.sv(112) @ 10745: uvm_test_top.env.scb [SCBD] WRITE OK: ADDR=0x30 WDATA=0x7f8d1c75 STRB=0xf NEW_MEM=0x7f8d1c75
# UVM_INFO apb_slave_driver.sv(38) @ 10785: uvm_test_top.env.act_agent.drv [DRV_SETUP] SETUP :ADDR=0x30 WRITE=0 WDATA=0x68c6660e STRB=0xa
# UVM_INFO apb_slave_driver.sv(46) @ 10795: uvm_test_top.env.act_agent.drv [DRV_ACCESS] ACCESS : ADDR=0x30 WRITE=0
# UVM_INFO apb_slave_active_monitor.sv(43) @ 10815: uvm_test_top.env.act_agent.mon_active [ACT_MON_SETUP] SETUP : ADDR=0x30 WRITE=0 STRB=0xa WDATA=0x0
# UVM_INFO apb_slave_scoreboard.sv(148) @ 10815: uvm_test_top.env.scb [SCBD] READ PASS: ADDR=0x30 ACT=0x7f8d1c75 EXP=0x7f8d1c75
# UVM_INFO apb_slave_driver.sv(38) @ 10855: uvm_test_top.env.act_agent.drv [DRV_SETUP] SETUP :ADDR=0x31 WRITE=1 WDATA=0x77942f07 STRB=0xf
# UVM_INFO apb_slave_driver.sv(46) @ 10865: uvm_test_top.env.act_agent.drv [DRV_ACCESS] ACCESS : ADDR=0x31 WRITE=1
# UVM_INFO apb_slave_active_monitor.sv(43) @ 10885: uvm_test_top.env.act_agent.mon_active [ACT_MON_SETUP] SETUP : ADDR=0x31 WRITE=1 STRB=0xf WDATA=0x77942f07
# UVM_INFO apb_slave_scoreboard.sv(112) @ 10885: uvm_test_top.env.scb [SCBD] WRITE OK: ADDR=0x31 WDATA=0x77942f07 STRB=0xf NEW_MEM=0x77942f07
# UVM_INFO apb_slave_driver.sv(38) @ 10925: uvm_test_top.env.act_agent.drv [DRV_SETUP] SETUP :ADDR=0x31 WRITE=0 WDATA=0x501e4cf2 STRB=0xb
# UVM_INFO apb_slave_driver.sv(46) @ 10935: uvm_test_top.env.act_agent.drv [DRV_ACCESS] ACCESS : ADDR=0x31 WRITE=0
# UVM_INFO apb_slave_active_monitor.sv(43) @ 10955: uvm_test_top.env.act_agent.mon_active [ACT_MON_SETUP] SETUP : ADDR=0x31 WRITE=0 STRB=0xb WDATA=0x0
# UVM_INFO apb_slave_scoreboard.sv(148) @ 10955: uvm_test_top.env.scb [SCBD] READ PASS: ADDR=0x31 ACT=0x77942f07 EXP=0x77942f07
# UVM_INFO apb_slave_driver.sv(38) @ 10995: uvm_test_top.env.act_agent.drv [DRV_SETUP] SETUP :ADDR=0x32 WRITE=1 WDATA=0x587a8c4d STRB=0xf
# UVM_INFO apb_slave_driver.sv(46) @ 11005: uvm_test_top.env.act_agent.drv [DRV_ACCESS] ACCESS : ADDR=0x32 WRITE=1
# UVM_INFO apb_slave_active_monitor.sv(43) @ 11025: uvm_test_top.env.act_agent.mon_active [ACT_MON_SETUP] SETUP : ADDR=0x32 WRITE=1 STRB=0xf WDATA=0x587a8c4d
# UVM_INFO apb_slave_scoreboard.sv(112) @ 11025: uvm_test_top.env.scb [SCBD] WRITE OK: ADDR=0x32 WDATA=0x587a8c4d STRB=0xf NEW_MEM=0x587a8c4d
# UVM_INFO apb_slave_driver.sv(38) @ 11065: uvm_test_top.env.act_agent.drv [DRV_SETUP] SETUP :ADDR=0x32 WRITE=0 WDATA=0x5deeb842 STRB=0x6
# UVM_INFO apb_slave_driver.sv(46) @ 11075: uvm_test_top.env.act_agent.drv [DRV_ACCESS] ACCESS : ADDR=0x32 WRITE=0
# UVM_INFO apb_slave_active_monitor.sv(43) @ 11095: uvm_test_top.env.act_agent.mon_active [ACT_MON_SETUP] SETUP : ADDR=0x32 WRITE=0 STRB=0x6 WDATA=0x0
# UVM_INFO apb_slave_scoreboard.sv(148) @ 11095: uvm_test_top.env.scb [SCBD] READ PASS: ADDR=0x32 ACT=0x587a8c4d EXP=0x587a8c4d
# UVM_INFO apb_slave_driver.sv(38) @ 11135: uvm_test_top.env.act_agent.drv [DRV_SETUP] SETUP :ADDR=0x33 WRITE=1 WDATA=0xdf365f6b STRB=0xf
# UVM_INFO apb_slave_driver.sv(46) @ 11145: uvm_test_top.env.act_agent.drv [DRV_ACCESS] ACCESS : ADDR=0x33 WRITE=1
# UVM_INFO apb_slave_active_monitor.sv(43) @ 11165: uvm_test_top.env.act_agent.mon_active [ACT_MON_SETUP] SETUP : ADDR=0x33 WRITE=1 STRB=0xf WDATA=0xdf365f6b
# UVM_INFO apb_slave_scoreboard.sv(112) @ 11165: uvm_test_top.env.scb [SCBD] WRITE OK: ADDR=0x33 WDATA=0xdf365f6b STRB=0xf NEW_MEM=0xdf365f6b
# UVM_INFO apb_slave_driver.sv(38) @ 11205: uvm_test_top.env.act_agent.drv [DRV_SETUP] SETUP :ADDR=0x33 WRITE=0 WDATA=0x9cf1f1f2 STRB=0x5
# UVM_INFO apb_slave_driver.sv(46) @ 11215: uvm_test_top.env.act_agent.drv [DRV_ACCESS] ACCESS : ADDR=0x33 WRITE=0
# UVM_INFO apb_slave_active_monitor.sv(43) @ 11235: uvm_test_top.env.act_agent.mon_active [ACT_MON_SETUP] SETUP : ADDR=0x33 WRITE=0 STRB=0x5 WDATA=0x0
# UVM_INFO apb_slave_scoreboard.sv(148) @ 11235: uvm_test_top.env.scb [SCBD] READ PASS: ADDR=0x33 ACT=0xdf365f6b EXP=0xdf365f6b
# UVM_INFO apb_slave_driver.sv(38) @ 11275: uvm_test_top.env.act_agent.drv [DRV_SETUP] SETUP :ADDR=0x34 WRITE=1 WDATA=0x8128f9a6 STRB=0xf
# UVM_INFO apb_slave_driver.sv(46) @ 11285: uvm_test_top.env.act_agent.drv [DRV_ACCESS] ACCESS : ADDR=0x34 WRITE=1
# UVM_INFO apb_slave_active_monitor.sv(43) @ 11305: uvm_test_top.env.act_agent.mon_active [ACT_MON_SETUP] SETUP : ADDR=0x34 WRITE=1 STRB=0xf WDATA=0x8128f9a6
# UVM_INFO apb_slave_scoreboard.sv(112) @ 11305: uvm_test_top.env.scb [SCBD] WRITE OK: ADDR=0x34 WDATA=0x8128f9a6 STRB=0xf NEW_MEM=0x8128f9a6
# UVM_INFO apb_slave_driver.sv(38) @ 11345: uvm_test_top.env.act_agent.drv [DRV_SETUP] SETUP :ADDR=0x34 WRITE=0 WDATA=0xaffdd4b6 STRB=0x6
# UVM_INFO apb_slave_driver.sv(46) @ 11355: uvm_test_top.env.act_agent.drv [DRV_ACCESS] ACCESS : ADDR=0x34 WRITE=0
# UVM_INFO apb_slave_active_monitor.sv(43) @ 11375: uvm_test_top.env.act_agent.mon_active [ACT_MON_SETUP] SETUP : ADDR=0x34 WRITE=0 STRB=0x6 WDATA=0x0
# UVM_INFO apb_slave_scoreboard.sv(148) @ 11375: uvm_test_top.env.scb [SCBD] READ PASS: ADDR=0x34 ACT=0x8128f9a6 EXP=0x8128f9a6
# UVM_INFO apb_slave_driver.sv(38) @ 11415: uvm_test_top.env.act_agent.drv [DRV_SETUP] SETUP :ADDR=0x35 WRITE=1 WDATA=0x84b52a6e STRB=0xf
# UVM_INFO apb_slave_driver.sv(46) @ 11425: uvm_test_top.env.act_agent.drv [DRV_ACCESS] ACCESS : ADDR=0x35 WRITE=1
# UVM_INFO apb_slave_active_monitor.sv(43) @ 11445: uvm_test_top.env.act_agent.mon_active [ACT_MON_SETUP] SETUP : ADDR=0x35 WRITE=1 STRB=0xf WDATA=0x84b52a6e
# UVM_INFO apb_slave_scoreboard.sv(112) @ 11445: uvm_test_top.env.scb [SCBD] WRITE OK: ADDR=0x35 WDATA=0x84b52a6e STRB=0xf NEW_MEM=0x84b52a6e
# UVM_INFO apb_slave_driver.sv(38) @ 11485: uvm_test_top.env.act_agent.drv [DRV_SETUP] SETUP :ADDR=0x35 WRITE=0 WDATA=0x89572bc8 STRB=0xa
# UVM_INFO apb_slave_driver.sv(46) @ 11495: uvm_test_top.env.act_agent.drv [DRV_ACCESS] ACCESS : ADDR=0x35 WRITE=0
# UVM_INFO apb_slave_active_monitor.sv(43) @ 11515: uvm_test_top.env.act_agent.mon_active [ACT_MON_SETUP] SETUP : ADDR=0x35 WRITE=0 STRB=0xa WDATA=0x0
# UVM_INFO apb_slave_scoreboard.sv(148) @ 11515: uvm_test_top.env.scb [SCBD] READ PASS: ADDR=0x35 ACT=0x84b52a6e EXP=0x84b52a6e
# UVM_INFO apb_slave_driver.sv(38) @ 11555: uvm_test_top.env.act_agent.drv [DRV_SETUP] SETUP :ADDR=0x36 WRITE=1 WDATA=0xc7d80543 STRB=0xf
# UVM_INFO apb_slave_driver.sv(46) @ 11565: uvm_test_top.env.act_agent.drv [DRV_ACCESS] ACCESS : ADDR=0x36 WRITE=1
# UVM_INFO apb_slave_active_monitor.sv(43) @ 11585: uvm_test_top.env.act_agent.mon_active [ACT_MON_SETUP] SETUP : ADDR=0x36 WRITE=1 STRB=0xf WDATA=0xc7d80543
# UVM_INFO apb_slave_scoreboard.sv(112) @ 11585: uvm_test_top.env.scb [SCBD] WRITE OK: ADDR=0x36 WDATA=0xc7d80543 STRB=0xf NEW_MEM=0xc7d80543
# UVM_INFO apb_slave_driver.sv(38) @ 11625: uvm_test_top.env.act_agent.drv [DRV_SETUP] SETUP :ADDR=0x36 WRITE=0 WDATA=0xdf0ff47c STRB=0xb
# UVM_INFO apb_slave_driver.sv(46) @ 11635: uvm_test_top.env.act_agent.drv [DRV_ACCESS] ACCESS : ADDR=0x36 WRITE=0
# UVM_INFO apb_slave_active_monitor.sv(43) @ 11655: uvm_test_top.env.act_agent.mon_active [ACT_MON_SETUP] SETUP : ADDR=0x36 WRITE=0 STRB=0xb WDATA=0x0
# UVM_INFO apb_slave_scoreboard.sv(148) @ 11655: uvm_test_top.env.scb [SCBD] READ PASS: ADDR=0x36 ACT=0xc7d80543 EXP=0xc7d80543
# UVM_INFO apb_slave_driver.sv(38) @ 11695: uvm_test_top.env.act_agent.drv [DRV_SETUP] SETUP :ADDR=0x37 WRITE=1 WDATA=0x2b4853f7 STRB=0xf
# UVM_INFO apb_slave_driver.sv(46) @ 11705: uvm_test_top.env.act_agent.drv [DRV_ACCESS] ACCESS : ADDR=0x37 WRITE=1
# UVM_INFO apb_slave_active_monitor.sv(43) @ 11725: uvm_test_top.env.act_agent.mon_active [ACT_MON_SETUP] SETUP : ADDR=0x37 WRITE=1 STRB=0xf WDATA=0x2b4853f7
# UVM_INFO apb_slave_scoreboard.sv(112) @ 11725: uvm_test_top.env.scb [SCBD] WRITE OK: ADDR=0x37 WDATA=0x2b4853f7 STRB=0xf NEW_MEM=0x2b4853f7
# UVM_INFO apb_slave_driver.sv(38) @ 11765: uvm_test_top.env.act_agent.drv [DRV_SETUP] SETUP :ADDR=0x37 WRITE=0 WDATA=0xc1b21fb8 STRB=0x9
# UVM_INFO apb_slave_driver.sv(46) @ 11775: uvm_test_top.env.act_agent.drv [DRV_ACCESS] ACCESS : ADDR=0x37 WRITE=0
# UVM_INFO apb_slave_active_monitor.sv(43) @ 11795: uvm_test_top.env.act_agent.mon_active [ACT_MON_SETUP] SETUP : ADDR=0x37 WRITE=0 STRB=0x9 WDATA=0x0
# UVM_INFO apb_slave_scoreboard.sv(148) @ 11795: uvm_test_top.env.scb [SCBD] READ PASS: ADDR=0x37 ACT=0x2b4853f7 EXP=0x2b4853f7
# UVM_INFO apb_slave_driver.sv(38) @ 11835: uvm_test_top.env.act_agent.drv [DRV_SETUP] SETUP :ADDR=0x38 WRITE=1 WDATA=0xa6f8f2d9 STRB=0xf
# UVM_INFO apb_slave_driver.sv(46) @ 11845: uvm_test_top.env.act_agent.drv [DRV_ACCESS] ACCESS : ADDR=0x38 WRITE=1
# UVM_INFO apb_slave_active_monitor.sv(43) @ 11865: uvm_test_top.env.act_agent.mon_active [ACT_MON_SETUP] SETUP : ADDR=0x38 WRITE=1 STRB=0xf WDATA=0xa6f8f2d9
# UVM_INFO apb_slave_scoreboard.sv(112) @ 11865: uvm_test_top.env.scb [SCBD] WRITE OK: ADDR=0x38 WDATA=0xa6f8f2d9 STRB=0xf NEW_MEM=0xa6f8f2d9
# UVM_INFO apb_slave_driver.sv(38) @ 11905: uvm_test_top.env.act_agent.drv [DRV_SETUP] SETUP :ADDR=0x38 WRITE=0 WDATA=0x72dc0e8e STRB=0xf
# UVM_INFO apb_slave_driver.sv(46) @ 11915: uvm_test_top.env.act_agent.drv [DRV_ACCESS] ACCESS : ADDR=0x38 WRITE=0
# UVM_INFO apb_slave_active_monitor.sv(43) @ 11935: uvm_test_top.env.act_agent.mon_active [ACT_MON_SETUP] SETUP : ADDR=0x38 WRITE=0 STRB=0xf WDATA=0x0
# UVM_INFO apb_slave_scoreboard.sv(148) @ 11935: uvm_test_top.env.scb [SCBD] READ PASS: ADDR=0x38 ACT=0xa6f8f2d9 EXP=0xa6f8f2d9
# UVM_INFO apb_slave_driver.sv(38) @ 11975: uvm_test_top.env.act_agent.drv [DRV_SETUP] SETUP :ADDR=0x39 WRITE=1 WDATA=0x50ce80da STRB=0xf
# UVM_INFO apb_slave_driver.sv(46) @ 11985: uvm_test_top.env.act_agent.drv [DRV_ACCESS] ACCESS : ADDR=0x39 WRITE=1
# UVM_INFO apb_slave_active_monitor.sv(43) @ 12005: uvm_test_top.env.act_agent.mon_active [ACT_MON_SETUP] SETUP : ADDR=0x39 WRITE=1 STRB=0xf WDATA=0x50ce80da
# UVM_INFO apb_slave_scoreboard.sv(112) @ 12005: uvm_test_top.env.scb [SCBD] WRITE OK: ADDR=0x39 WDATA=0x50ce80da STRB=0xf NEW_MEM=0x50ce80da
# UVM_INFO apb_slave_driver.sv(38) @ 12045: uvm_test_top.env.act_agent.drv [DRV_SETUP] SETUP :ADDR=0x39 WRITE=0 WDATA=0x3e9c39a7 STRB=0x1
# UVM_INFO apb_slave_driver.sv(46) @ 12055: uvm_test_top.env.act_agent.drv [DRV_ACCESS] ACCESS : ADDR=0x39 WRITE=0
# UVM_INFO apb_slave_active_monitor.sv(43) @ 12075: uvm_test_top.env.act_agent.mon_active [ACT_MON_SETUP] SETUP : ADDR=0x39 WRITE=0 STRB=0x1 WDATA=0x0
# UVM_INFO apb_slave_scoreboard.sv(148) @ 12075: uvm_test_top.env.scb [SCBD] READ PASS: ADDR=0x39 ACT=0x50ce80da EXP=0x50ce80da
# UVM_INFO apb_slave_driver.sv(38) @ 12115: uvm_test_top.env.act_agent.drv [DRV_SETUP] SETUP :ADDR=0x3a WRITE=1 WDATA=0x5d6849b4 STRB=0xf
# UVM_INFO apb_slave_driver.sv(46) @ 12125: uvm_test_top.env.act_agent.drv [DRV_ACCESS] ACCESS : ADDR=0x3a WRITE=1
# UVM_INFO apb_slave_active_monitor.sv(43) @ 12145: uvm_test_top.env.act_agent.mon_active [ACT_MON_SETUP] SETUP : ADDR=0x3a WRITE=1 STRB=0xf WDATA=0x5d6849b4
# UVM_INFO apb_slave_scoreboard.sv(112) @ 12145: uvm_test_top.env.scb [SCBD] WRITE OK: ADDR=0x3a WDATA=0x5d6849b4 STRB=0xf NEW_MEM=0x5d6849b4
# UVM_INFO apb_slave_driver.sv(38) @ 12185: uvm_test_top.env.act_agent.drv [DRV_SETUP] SETUP :ADDR=0x3a WRITE=0 WDATA=0xe81eb307 STRB=0xf
# UVM_INFO apb_slave_driver.sv(46) @ 12195: uvm_test_top.env.act_agent.drv [DRV_ACCESS] ACCESS : ADDR=0x3a WRITE=0
# UVM_INFO apb_slave_active_monitor.sv(43) @ 12215: uvm_test_top.env.act_agent.mon_active [ACT_MON_SETUP] SETUP : ADDR=0x3a WRITE=0 STRB=0xf WDATA=0x0
